(1666579621.804742) can0 18FEF200#52000000EF00FFFF
(1666579621.805032) can0 18FEF000#FFFFFFFFFF0000FF
(1666579621.805334) can0 18FEF100#FF0000C0000000FF
(1666579621.807535) can0 18F0010B#CFFFF3FFFF0FFFFF
(1666579621.814018) can0 18FEBF0B#00007D7D7D7DFFFF
(1666579621.814307) can0 0CF00203#000000FFF7441403
(1666579621.814590) can0 0CF00C03#6104FFFFFFFFFFFF
(1666579621.814872) can0 0CF00400#F07D8FF315FFFF8F
(1666579621.826014) can0 0CF00203#000000FFF7441403
(1666579621.828109) can0 0CF00400#F07D8FF315FFFF8F
(1666579621.840337) can0 0CF00203#000000FFF7521403
(1666579621.840614) can0 0CF00C03#6704FFFFFFFFFFFF
(1666579621.840897) can0 18F00503#7D00007D4E204E43
(1666579621.841208) can0 18EF0503#FFFFFFFFFF004E4E
(1666579621.841435) can0 18FE4A03#03134CE0FFF1FFFF
(1666579621.843742) can0 0C010305#FFFFE0FFFF3F3FFF
(1666579621.844068) can0 0CF00400#F07D8EF715FFFF8E
(1666579621.846868) can0 0CF00300#DF0010FFFFFFFFFF
(1666579621.847167) can0 18FEDF00#84E015FFFBFFFFFF
(1666579621.850315) can0 0CF00203#000000FFF7521403
(1666579621.852988) can0 18F00197#FFFFF0FFFFFFFFFF
(1666579621.858260) can0 0CF00400#F07D8EF715FFFF8E
(1666579621.864315) can0 0CF00203#000000FFF7661403
(1666579621.864599) can0 0CF00C03#5504FFFFFFFFFFFF
(1666579621.873557) can0 0CF00400#F07D8EFB15FFFF8E
(1666579621.876356) can0 0CF00203#000000FFF7661403
(1666579621.889008) can0 0CF00203#000000FFF75A1403
(1666579621.889307) can0 0C010305#FFFFE0FFFF3F3FFF
(1666579621.889591) can0 0CF00C03#5204FFFFFFFFFFFF
(1666579621.891356) can0 0CF00400#F07D8EFB15FFFF8E
(1666579621.891663) can0 0CF00300#DF000FFFFFFFFFFF
(1666579621.891976) can0 18F00029#F07DFFFFFFFFFFFF
(1666579621.894857) can0 18FEE000#FFFFFFFF83040000
(1666579621.895157) can0 18FEF200#52000000EF00FFFF
(1666579621.895439) can0 18FEF000#FFFFFFFFFF0000FF
(1666579621.895741) can0 18FEF100#FF0000C0000000FF
(1666579621.900814) can0 0CF00203#000000FFF75A1403
(1666579621.903807) can0 0CF00400#F07D8E0416FFFF8E
(1666579621.906906) can0 18F0010B#CFFFF3FFFF0FFFFF
(1666579621.912165) can0 18FEBF0B#00007D7D7D7DFFFF
(1666579621.915184) can0 0CF00203#000000FFF7601403
(1666579621.915489) can0 0CF00C03#3E04FFFFFFFFFFFF
(1666579621.918822) can0 18FED51A#320DFFFFFFFFFFFF
(1666579621.919087) can0 0CF00400#F07D8E0416FFFF8E
(1666579621.927175) can0 0CF00203#000000FFF7601403
(1666579621.933081) can0 0CF00400#F07D8EF315FFFF8E
(1666579621.939302) can0 0CF00203#000000FFF7701403
(1666579621.939473) can0 0C010305#FFFFE0FFFF3F3FFF
(1666579621.939862) can0 0CF00C03#1404FFFFFFFFFFFF
(1666579621.940087) can0 18F00503#7D00007D4E204E43
(1666579621.942721) can0 18EF0503#FFFFFFFFFF004E4E
(1666579621.942985) can0 18FE4A03#03134CE0FFF1FFFF
(1666579621.943375) can0 18FECA03#F3FF00000000FFFF
(1666579621.949156) can0 0CF00400#F07D8EF315FFFF8E
(1666579621.949334) can0 0CF00300#DF000FFFFFFFFFFF
(1666579621.951172) can0 0CF00203#000000FFF7701403
(1666579621.954350) can0 18F00197#FFFFF0FFFFFFFFFF
(1666579621.963328) can0 0CF00203#000000FFF7821403
(1666579621.963516) can0 0CF00400#F07D8EEF15FFFF8E
(1666579621.967403) can0 0CF00C03#0704FFFFFFFFFFFF
(1666579621.975658) can0 0CF00203#000000FFF7821403
(1666579621.978464) can0 0CF00400#F07D8EEF15FFFF8E
(1666579621.987428) can0 0C010305#FFFFE0FFFF3F3FFF
(1666579621.990921) can0 0CF00203#000000FFF7701403
(1666579621.991132) can0 0CF00C03#1F04FFFFFFFFFFFF
(1666579621.996810) can0 0CF00400#F07D8E0016FFFF8E
(1666579621.997016) can0 0CF00300#DF000FFFFFFFFFFF
(1666579621.997399) can0 18F00029#F07DFFFFFFFFFFFF
(1666579621.997603) can0 18FEE000#FFFFFFFF83040000
(1666579621.997891) can0 18FEF200#52000000EF00FFFF
(1666579622.000145) can0 18FEF000#FFFFFFFFFF0000FF
(1666579622.000409) can0 18FEF100#FF0000C0000000FF
(1666579622.000694) can0 0CF00203#000000FFF7701403
(1666579622.008732) can0 18F0010B#CFFFF3FFFF0FFFFF
(1666579622.008891) can0 0CF00400#F07D8E0016FFFF8E
(1666579622.014382) can0 0CF00203#000000FFF7721403
(1666579622.014567) can0 18FEBF0B#00007D7D7D7DFFFF
(1666579622.014950) can0 0CF00C03#4E04FFFFFFFFFFFF
(1666579622.023398) can0 0CF00400#F07D8E0416FFFF8E
(1666579622.026550) can0 0CF00203#000000FFF7721403
(1666579622.032473) can0 0C010305#FFFFE0FFFF3F3FFF
(1666579622.038668) can0 0CF00203#000000FFF76C1403
(1666579622.039015) can0 0CF00400#F07D8E0416FFFF8E
(1666579622.041775) can0 0CF00C03#5504FFFFFFFFFFFF
(1666579622.041948) can0 0CF00300#DF000FFFFFFFFFFF
(1666579622.042244) can0 18F00503#7D00007D4E204E43
(1666579622.042519) can0 18EF0503#FFFFFFFFFF004E4E
(1666579622.042880) can0 18FE4A03#03134CE0FFF1FFFF
(1666579622.050467) can0 0CF00203#000000FFF76C1403
(1666579622.053974) can0 18F00197#FFFFF0FFFFFFFFFF
(1666579622.054153) can0 0CF00400#F07D8E0416FFFF8E
(1666579622.065449) can0 0CF00203#000000FFF7721403
(1666579622.065616) can0 0CF00C03#5504FFFFFFFFFFFF
(1666579622.068380) can0 0CF00400#F07D8EF315FFFF8E
(1666579622.077228) can0 0CF00203#000000FFF7721403
(1666579622.083480) can0 0C010305#FFFFE0FFFF3F3FFF
(1666579622.083642) can0 0CF00400#F07D8EF315FFFF8E
(1666579622.089454) can0 0CF00203#000000FFF78C1403
(1666579622.089615) can0 0CF00C03#3B04FFFFFFFFFFFF
(1666579622.101509) can0 0CF00400#F07D8EE215FFFF8E
(1666579622.101714) can0 0CF00300#DF000FFFFFFFFFFF
(1666579622.102109) can0 18FEDF00#84E015FFFBFFFFFF
(1666579622.102283) can0 0CF00203#000000FFF78C1403
(1666579622.102601) can0 18F00029#F07DFFFFFFFFFFFF
(1666579622.104823) can0 18FEE000#FFFFFFFF83040000
(1666579622.105015) can0 18FEEF00#FFFFFF6AFFFFFFFF
(1666579622.105296) can0 18FEF200#52000000EF00FFFF
(1666579622.105581) can0 18FEF600#FF0037FFFFFFFFFF
(1666579622.105880) can0 18FEDB00#FF0AFFFFFFFFFFFF
(1666579622.108083) can0 18FEF000#FFFFFFFFFF0000FF
(1666579622.108282) can0 18FEF100#FF0000C0000000FF
(1666579622.108565) can0 18F0010B#CFFFF3FFFF0FFFFF
(1666579622.113389) can0 0CF00203#000000FFF77A1403
(1666579622.113566) can0 0CF00400#F07D8EE215FFFF8E
(1666579622.116299) can0 0CF00C03#1B04FFFFFFFFFFFF
(1666579622.116468) can0 18FEBF0B#00007D7D7D7DFFFF
(1666579622.125378) can0 0CF00203#000000FFF77A1403
(1666579622.128734) can0 0CF00400#F07D8EDE15FFFF8E
(1666579622.131651) can0 0C010305#FFFFE0FFFF3F3FFF
(1666579622.138378) can0 0CF00203#000000FFF7821403
(1666579622.138560) can0 0CF00C03#FD03FFFFFFFFFFFF
(1666579622.140445) can0 18F00503#7D00007D4E204E43
(1666579622.140620) can0 18EF0503#FFFFFFFFFF004E4E
(1666579622.140900) can0 18FE4A03#03134CE0FFF1FFFF
(1666579622.143904) can0 0CF00400#F07D8EDE15FFFF8E
(1666579622.146601) can0 0CF00300#DF0010FFFFFFFFFF
(1666579622.152454) can0 0CF00203#000000FFF7821403
(1666579622.152619) can0 18F00197#FFFFF0FFFFFFFFFF
(1666579622.158852) can0 0CF00400#F07D8E0016FFFF8E
(1666579622.164822) can0 0CF00203#000000FFF7661403
(1666579622.165011) can0 0CF00C03#1104FFFFFFFFFFFF
(1666579622.173480) can0 0CF00400#F07D8E0016FFFF8E
(1666579622.176788) can0 0CF00203#000000FFF7661403
(1666579622.176907) can0 0C010305#FFFFE0FFFF3F3FFF
(1666579622.188474) can0 0CF00203#000000FFF7601403
(1666579622.188642) can0 0CF00C03#3104FFFFFFFFFFFF
(1666579622.192530) can0 0CF00400#F07D8E0416FFFF8E
(1666579622.192692) can0 0CF00300#DF0010FFFFFFFFFF
(1666579622.193092) can0 18F00029#F07DFFFFFFFFFFFF
(1666579622.193277) can0 18FEE000#FFFFFFFF83040000
(1666579622.193659) can0 18FEF200#52000000EF00FFFF
(1666579622.193859) can0 18FEF000#FFFFFFFFFF0000FF
(1666579622.194157) can0 18FEF100#FF0000C0000000FF
(1666579622.200255) can0 0CF00203#000000FFF7601403
(1666579622.203727) can0 0CF00400#F07D8E0416FFFF8E
(1666579622.209980) can0 18F0010B#CFFFF3FFFF0FFFFF
(1666579622.215727) can0 0CF00203#000000FFF7641403
(1666579622.215885) can0 0CF00C03#4104FFFFFFFFFFFF
(1666579622.216278) can0 18FEBF0B#00007D7D7D7DFFFF
(1666579622.219173) can0 0CF00400#F07D8E0416FFFF8E
(1666579622.227554) can0 0C010305#FFFFE0FFFF3F3FFF
(1666579622.227719) can0 0CF00203#000000FFF7641403
(1666579622.234054) can0 0CF00400#F07D8E0416FFFF8E
(1666579622.239329) can0 0CF00203#000000FFF7741403
(1666579622.239492) can0 0CF00C03#4B04FFFFFFFFFFFF
(1666579622.239780) can0 18F00503#7D00007D4E204E43
(1666579622.242350) can0 18EF0503#FFFFFFFFFF004E4E
(1666579622.242516) can0 18FE4A03#03134CE0FFF1FFFF
(1666579622.248329) can0 0CF00400#F07D8EEF15FFFF8E
(1666579622.251450) can0 0CF00300#DF000FFFFFFFFFFF
(1666579622.251616) can0 0CF00203#000000FFF7741403
(1666579622.254704) can0 18F00197#FFFFF0FFFFFFFFFF
(1666579622.263976) can0 0CF00203#000000FFF7801403
(1666579622.264128) can0 0CF00400#F07D8EEF15FFFF8E
(1666579622.264522) can0 0CF00C03#4804FFFFFFFFFFFF
(1666579622.275430) can0 0C010305#FFFFE0FFFF3F3FFF
(1666579622.275586) can0 0CF00203#000000FFF7801403
(1666579622.278919) can0 0CF00400#F07D8EE215FFFF8E
(1666579622.291106) can0 0CF00203#000000FFF7681403
(1666579622.291287) can0 0CF00C03#4504FFFFFFFFFFFF
(1666579622.293397) can0 0CF00400#F07D8EE215FFFF8E
(1666579622.296715) can0 0CF00300#DF000FFFFFFFFFFF
(1666579622.296911) can0 18F00029#F07DFFFFFFFFFFFF
(1666579622.297300) can0 18FEE000#FFFFFFFF83040000
(1666579622.297485) can0 18FEF200#52000000EF00FFFF
(1666579622.297798) can0 18FEF000#FFFFFFFFFF0000FF
(1666579622.299994) can0 18FEF100#FF0000C0000000FF
(1666579622.300177) can0 0CF00203#000000FFF7681403
(1666579622.309150) can0 0CF00400#F07D8ED615FFFF8E
(1666579622.309337) can0 18F0010B#CFFFF3FFFF0FFFFF
(1666579622.314455) can0 0CF00203#000000FFF7581403
(1666579622.314609) can0 0CF00C03#3804FFFFFFFFFFFF
(1666579622.315001) can0 18FEBF0B#00007D7D7D7DFFFF
(1666579622.317976) can0 18FFC81A#1F0503807D91FFFF
(1666579622.320700) can0 0C010305#FFFFE0FFFF3F3FFF
(1666579622.323862) can0 0CF00400#F07D8ED615FFFF8E
(1666579622.327295) can0 0CF00203#000000FFF7581403
(1666579622.338489) can0 0CF00203#000000FFF7581403
(1666579622.338641) can0 0CF00400#F07D8EEB15FFFF8E
(1666579622.341598) can0 0CF00C03#0E04FFFFFFFFFFFF
(1666579622.341792) can0 0CF00300#DF000FFFFFFFFFFF
(1666579622.342181) can0 18F00503#7D00007D4E204E43
(1666579622.342342) can0 18FEDF00#84E015FFFBFFFFFF
(1666579622.342740) can0 18EF0503#FFFFFFFFFF004E4E
(1666579622.344545) can0 18FE4A03#03134CE0FFF1FFFF
(1666579622.350025) can0 0CF00203#000000FFF7581403
(1666579622.353621) can0 18F00197#FFFFF0FFFFFFFFFF
(1666579622.353707) can0 0CF00400#F07D8EEB15FFFF8E
(1666579622.363014) can0 0CF00203#000000FFF76C1403
(1666579622.363234) can0 0CF00C03#0704FFFFFFFFFFFF
(1666579622.368025) can0 0CF00400#F07D8EE615FFFF8E
(1666579622.371652) can0 0C010305#FFFFE0FFFF3F3FFF
(1666579622.377401) can0 0CF00203#000000FFF76C1403
(1666579622.383430) can0 0CF00400#F07D8EE615FFFF8E
(1666579622.389452) can0 0CF00203#000000FFF75C1403
(1666579622.389616) can0 0CF00C03#1804FFFFFFFFFFFF
(1666579622.398349) can0 0CF00400#F07D8EE615FFFF8E
(1666579622.401702) can0 0CF00300#DF000FFFFFFFFFFF
(1666579622.401888) can0 18F00029#F07DFFFFFFFFFFFF
(1666579622.402183) can0 18FEE000#FFFFFFFF83040000
(1666579622.402475) can0 0CF00203#000000FFF75C1403
(1666579622.402755) can0 18FEF200#52000000EF00FFFF
(1666579622.404860) can0 18FEF000#FFFFFFFFFF0000FF
(1666579622.405110) can0 18FEF100#FF0000C0000000FF
(1666579622.410250) can0 18F0010B#CFFFF3FFFF0FFFFF
(1666579622.414143) can0 0CF00400#F07D8EDA15FFFF8E
(1666579622.414328) can0 0CF00203#000000FFF7661403
(1666579622.414694) can0 0CF00C03#2A04FFFFFFFFFFFF
(1666579622.414895) can0 18FEBF0B#00007D7D7D7DFFFF
(1666579622.419477) can0 0C010305#FFFFE0FFFF3F3FFF
(1666579622.425721) can0 0CF00203#000000FFF7661403
(1666579622.428723) can0 0CF00400#F07D8EDA15FFFF8E
(1666579622.437933) can0 0CF00203#000000FFF7481403
(1666579622.438114) can0 0CF00C03#6104FFFFFFFFFFFF
(1666579622.441449) can0 18F00503#7D00007D4E204E43
(1666579622.441635) can0 18EF0503#FFFFFFFFFF004E4E
(1666579622.441909) can0 18FE4A03#03134CE0FFF1FFFF
(1666579622.444228) can0 0CF00400#F07D8EE215FFFF8E
(1666579622.444392) can0 0CF00300#DF000FFFFFFFFFFF
(1666579622.450150) can0 0CF00203#000000FFF7481403
(1666579622.453153) can0 18F00197#FFFFF0FFFFFFFFFF
(1666579622.459055) can0 0CF00400#F07D8EE215FFFF8E
(1666579622.464354) can0 0CF00203#000000FFF7481403
(1666579622.464512) can0 0CF00C03#6704FFFFFFFFFFFF
(1666579622.464903) can0 0C010305#FFFFE0FFFF3F3FFF
(1666579622.473441) can0 0CF00400#F07D8EE215FFFF8E
(1666579622.476695) can0 0CF00203#000000FFF7481403
(1666579622.488456) can0 0CF00203#000000FFF7581403
(1666579622.488612) can0 0CF00C03#5B04FFFFFFFFFFFF
(1666579622.491349) can0 0CF00400#F07D8EE215FFFF8E
(1666579622.491535) can0 0CF00300#DF0010FFFFFFFFFF
(1666579622.491820) can0 18F00029#F07DFFFFFFFFFFFF
(1666579622.492124) can0 18FEE000#FFFFFFFF83040000
(1666579622.492411) can0 18FEF200#52000000EF00FFFF
(1666579622.494558) can0 18FEF000#FFFFFFFFFF0000FF
(1666579622.494800) can0 18FEF100#FF0000C0000000FF
(1666579622.500453) can0 0CF00203#000000FFF7581403
(1666579622.503901) can0 0CF00400#F07D8E0C16FFFF8E
(1666579622.509327) can0 18F0010B#CFFFF3FFFF0FFFFF
(1666579622.513317) can0 0CF00203#000000FFF7701403
(1666579622.513509) can0 0CF00C03#3E04FFFFFFFFFFFF
(1666579622.515328) can0 0C010305#FFFFE0FFFF3F3FFF
(1666579622.515511) can0 18FEBF0B#00007D7D7D7DFFFF
(1666579622.518753) can0 18FEF71A#FFFF34021A01FFFF
(1666579622.518910) can0 0CF00400#F07D8E0C16FFFF8E
(1666579622.524933) can0 0CF00203#000000FFF7701403
(1666579622.533395) can0 0CF00400#F07D8E1116FFFF8E
(1666579622.539701) can0 0CF00203#000000FFF76C1403
(1666579622.539860) can0 0CF00C03#2D04FFFFFFFFFFFF
(1666579622.540141) can0 18F00503#7D00007D4E204E43
(1666579622.542977) can0 18EF0503#FFFFFFFFFF004E4E
(1666579622.543153) can0 18FE4A03#03134CE0FFF1FFFF
(1666579622.548319) can0 0CF00400#F07D8E1116FFFF8E
(1666579622.548485) can0 0CF00300#DF000FFFFFFFFFFF
(1666579622.551427) can0 0CF00203#000000FFF76C1403
(1666579622.554553) can0 18F00197#FFFFF0FFFFFFFFFF
(1666579622.563245) can0 0C010305#FFFFE0FFFF3F3FFF
(1666579622.563435) can0 0CF00400#F07D8E1916FFFF8E
(1666579622.563830) can0 0CF00203#000000FFF76C1403
(1666579622.566729) can0 0CF00C03#1804FFFFFFFFFFFF
(1666579622.575304) can0 0CF00203#000000FFF76C1403
(1666579622.578330) can0 0CF00400#F07D8E1916FFFF8E
(1666579622.591079) can0 0CF00203#000000FFF7661403
(1666579622.591238) can0 0CF00C03#2604FFFFFFFFFFFF
(1666579622.593178) can0 0CF00400#F07D8E0C16FFFF8E
(1666579622.596894) can0 0CF00300#DF000FFFFFFFFFFF
(1666579622.597085) can0 18FEDF00#84E015FFFBFFFFFF
(1666579622.597470) can0 18F00029#F07DFFFFFFFFFFFF
(1666579622.597663) can0 18FEE000#FFFFFFFF83040000
(1666579622.597947) can0 18FEEE00#52FFFFFFFFFFFFFF
(1666579622.598240) can0 18FEEF00#FFFFFF6AFFFFFFFF
(1666579622.600198) can0 18FEF200#52000000EF00FFFF
(1666579622.600361) can0 18FEF700#FFFFFFFF2C02FFFF
(1666579622.600749) can0 18FEF600#FF0037FFFFFFFFFF
(1666579622.600918) can0 18FEDB00#640AFFFFFFFFFFFF
(1666579622.601310) can0 0CF00203#000000FFF7661403
(1666579622.602535) can0 18FEF000#FFFFFFFFFF0000FF
(1666579622.602792) can0 18FEF100#FF0000C0000000FF
(1666579622.603187) can0 18FECA00#00FFFFFFFFFFFFFF
(1666579622.606041) can0 18FEE400#FF3FFFFFFFFFFFFF
(1666579622.606257) can0 18FEC100#DD700000FFFFFFFF
(1666579622.606535) can0 18E0FF00#00FFFFFFFFFFFFFF
(1666579622.608315) can0 0CF00400#F07D8E0C16FFFF8E
(1666579622.608492) can0 0C010305#FFFFE0FFFF3F3FFF
(1666579622.611937) can0 18F0010B#CFFFF3FFFF0FFFFF
(1666579622.615149) can0 0CF00203#000000FFF76A1403
(1666579622.615431) can0 0CF00C03#3B04FFFFFFFFFFFF
(1666579622.615713) can0 18FEBF0B#00007D7D7D7DFFFF
(1666579622.623906) can0 0CF00400#F07D8EF715FFFF8E
(1666579622.626990) can0 0CF00203#000000FFF76A1403
(1666579622.638428) can0 0CF00400#F07D8EF715FFFF8E
(1666579622.638592) can0 0CF00203#000000FFF7901403
(1666579622.638993) can0 0CF00300#DF000FFFFFFFFFFF
(1666579622.642000) can0 0CF00C03#3804FFFFFFFFFFFF
(1666579622.642178) can0 18F00503#7D00007D4E204E43
(1666579622.642572) can0 18EF0503#FFFFFFFFFF004E4E
(1666579622.642747) can0 18FE4A03#03134CE0FFF1FFFF
(1666579622.643134) can0 18FD9503#CCFFFF00FFFFFFFF
(1666579622.643332) can0 18FEF803#FFFFFFFF8024FBDE
(1666579622.651254) can0 0CF00203#000000FFF7901403
(1666579622.653499) can0 0CF00400#F07D8EE615FFFF8E
(1666579622.653673) can0 18F00197#FFFFF0FFFFFFFFFF
(1666579622.659459) can0 0C010305#FFFFE0FFFF3F3FFF
(1666579622.665403) can0 0CF00203#000000FFF7881403
(1666579622.665591) can0 0CF00C03#4104FFFFFFFFFFFF
(1666579622.668725) can0 0CF00400#F07D8EF315FFFF8E
(1666579622.677431) can0 0CF00203#000000FFF7881403
(1666579622.683427) can0 0CF00400#F07D8EF315FFFF8E
(1666579622.689428) can0 0CF00203#000000FFF78E1403
(1666579622.689615) can0 0CF00C03#3E04FFFFFFFFFFFF
(1666579622.698585) can0 0CF00400#F07D8EEF15FFFF8E
(1666579622.698741) can0 0CF00300#DF000FFFFFFFFFFF
(1666579622.702224) can0 18F00029#F07DFFFFFFFFFFFF
(1666579622.702392) can0 18FEE000#FFFFFFFF83040000
(1666579622.702691) can0 18FEF200#52000000EF00FFFF
(1666579622.702974) can0 0CF00203#000000FFF78E1403
(1666579622.703360) can0 18FEF000#FFFFFFFFFF0000FF
(1666579622.703558) can0 18FEF100#FF0000C0000000FF
(1666579622.707394) can0 0C010305#FFFFE0FFFF3F3FFF
(1666579622.710527) can0 18F0010B#CFFFF3FFFF0FFFFF
(1666579622.713390) can0 0CF00400#F07D8EEF15FFFF8E
(1666579622.713583) can0 0CF00203#000000FFF7801403
(1666579622.713873) can0 0CF00C03#2604FFFFFFFFFFFF
(1666579622.716080) can0 18FEBF0B#00007D7D7D7DFFFF
(1666579622.719733) can0 18FEA71A#FFFFFF39FFFFFFFF
(1666579622.725140) can0 0CF00203#000000FFF7801403
(1666579622.728210) can0 0CF00400#F07D8EEF15FFFF8E
(1666579622.740305) can0 0CF00203#000000FFF77A1403
(1666579622.740491) can0 0CF00C03#0704FFFFFFFFFFFF
(1666579622.740762) can0 18F00503#7D00007D4E204E43
(1666579622.741191) can0 18EF0503#FFFFFFFFFF004E4E
(1666579622.741331) can0 18FE4A03#03134CE0FFF1FFFF
(1666579622.743526) can0 0CF00400#F07D8EEF15FFFF8E
(1666579622.743733) can0 0CF00300#DF000FFFFFFFFFFF
(1666579622.752332) can0 0CF00203#000000FFF77A1403
(1666579622.752515) can0 18F00197#FFFFF0FFFFFFFFFF
(1666579622.755457) can0 0C010305#FFFFE0FFFF3F3FFF
(1666579622.758225) can0 0CF00400#F07D8EDA15FFFF8E
(1666579622.764973) can0 0CF00203#000000FFF77A1403
(1666579622.765159) can0 0CF00C03#FD03FFFFFFFFFFFF
(1666579622.773476) can0 0CF00400#F07D8EDA15FFFF8E
(1666579622.776797) can0 0CF00203#000000FFF77A1403
(1666579622.788691) can0 0CF00400#F07D8ED115FFFF8E
(1666579622.788982) can0 0CF00203#000000FFF77C1403
(1666579622.791784) can0 0CF00300#DF000FFFFFFFFFFF
(1666579622.791992) can0 0CF00C03#FD03FFFFFFFFFFFF
(1666579622.792366) can0 18F00029#F07DFFFFFFFFFFFF
(1666579622.792567) can0 18FEE000#FFFFFFFF83040000
(1666579622.792931) can0 18FEF200#52000000EF00FFFF
(1666579622.795170) can0 18FEF000#FFFFFFFFFF0000FF
(1666579622.795464) can0 18FEF100#FF0000C0000000FF
(1666579622.800395) can0 0CF00203#000000FFF77C1403
(1666579622.803936) can0 0C010305#FFFFE0FFFF3F3FFF
(1666579622.804140) can0 0CF00400#F07D8ED115FFFF8E
(1666579622.810098) can0 18F0010B#CFFFF3FFFF0FFFFF
(1666579622.813412) can0 0CF00203#000000FFF7681403
(1666579622.813547) can0 0CF00C03#2604FFFFFFFFFFFF
(1666579622.818927) can0 18FEBF0B#00007D7D7D7DFFFF
(1666579622.819025) can0 0CF00400#F07D8EC515FFFF8E
(1666579622.825206) can0 0CF00203#000000FFF7681403
(1666579622.833453) can0 0CF00400#F07D8EC515FFFF8E
(1666579622.839929) can0 0CF00203#000000FFF75E1403
(1666579622.840031) can0 0CF00C03#5204FFFFFFFFFFFF
(1666579622.840455) can0 18F00503#7D00007D4E204E43
(1666579622.840680) can0 18EF0503#FFFFFFFFFF004E4E
(1666579622.841043) can0 18FE4A03#03134CE0FFF1FFFF
(1666579622.848479) can0 0CF00400#F07D8EF315FFFF8E
(1666579622.848618) can0 0CF00300#DF0010FFFFFFFFFF
(1666579622.849031) can0 18FEDF00#84E015FFFBFFFFFF
(1666579622.851626) can0 0C010305#FFFFE0FFFF3F3FFF
(1666579622.851773) can0 0CF00203#000000FFF75E1403
(1666579622.854497) can0 18F00197#FFFFF0FFFFFFFFFF
(1666579622.864089) can0 0CF00400#F07D8EF315FFFF8E
(1666579622.864174) can0 0CF00203#000000FFF75C1403
(1666579622.864599) can0 0CF00C03#6404FFFFFFFFFFFF
(1666579622.875453) can0 0CF00203#000000FFF75C1403
(1666579622.878652) can0 0CF00400#F07D8EFB15FFFF8E
(1666579622.890707) can0 0CF00203#000000FFF75E1403
(1666579622.890816) can0 0CF00C03#5E04FFFFFFFFFFFF
(1666579622.894325) can0 0CF00400#F07D8EFB15FFFF8E
(1666579622.894433) can0 0CF00300#DF000FFFFFFFFFFF
(1666579622.894900) can0 18F00029#F07DFFFFFFFFFFFF
(1666579622.895096) can0 18FEE000#FFFFFFFF83040000
(1666579622.897275) can0 18FEF200#52000000EF00FFFF
(1666579622.897388) can0 18FEF000#FFFFFFFFFF0000FF
(1666579622.897830) can0 18FEF100#FF0000C0000000FF
(1666579622.898040) can0 0C010305#FFFFE0FFFF3F3FFF
(1666579622.902254) can0 0CF00203#000000FFF75E1403
(1666579622.908487) can0 0CF00400#F07D8E0016FFFF8E
(1666579622.911762) can0 18F0010B#CFFFF3FFFF0FFFFF
(1666579622.914720) can0 0CF00203#000000FFF7761403
(1666579622.915090) can0 0CF00C03#3104FFFFFFFFFFFF
(1666579622.918021) can0 18FEBF0B#00007D7D7D7DFFFF
(1666579622.918155) can0 18FED51A#320DFFFFFFFFFFFF
(1666579622.923306) can0 0CF00400#F07D8E0016FFFF8E
(1666579622.927042) can0 0CF00203#000000FFF7761403
(1666579622.938349) can0 0CF00400#F07D8EEB15FFFF8E
(1666579622.938457) can0 0CF00300#DF000FFFFFFFFFFF
(1666579622.938883) can0 0CF00203#000000FFF76A1403
(1666579622.941574) can0 0CF00C03#1B04FFFFFFFFFFFF
(1666579622.941691) can0 18F00503#7D00007D4E204E43
(1666579622.942083) can0 18EF0503#FFFFFFFFFF004E4E
(1666579622.942317) can0 18FE4A03#03134CE0FFF1FFFF
(1666579622.942607) can0 18FECA03#F3FF00000000FFFF
(1666579622.947549) can0 0C010305#FFFFE0FFFF3F3FFF
(1666579622.950351) can0 0CF00203#000000FFF76A1403
(1666579622.954351) can0 0CF00400#F07D8EDE15FFFF8E
(1666579622.954508) can0 18F00197#FFFFF0FFFFFFFFFF
(1666579622.965853) can0 0CF00203#000000FFF7681403
(1666579622.965959) can0 0CF00C03#0704FFFFFFFFFFFF
(1666579622.968952) can0 0CF00400#F07D8EDE15FFFF8E
(1666579622.977568) can0 0CF00203#000000FFF7681403
(1666579622.983706) can0 0CF00400#F07D8ED615FFFF8E
(1666579622.990206) can0 0CF00203#000000FFF74E1403
(1666579622.990308) can0 0CF00C03#2304FFFFFFFFFFFF
(1666579622.993079) can0 0C010305#FFFFE0FFFF3F3FFF
(1666579622.998655) can0 0CF00400#F07D8ED615FFFF8E
(1666579622.998758) can0 0CF00300#DF000FFFFFFFFFFF
(1666579622.999192) can0 18F00029#F07DFFFFFFFFFFFF
(1666579623.002066) can0 18FEE000#FFFFFFFF83040000
(1666579623.002320) can0 18FEF200#52000000EF00FFFF
(1666579623.002603) can0 0CF00203#000000FFF74E1403
(1666579623.002885) can0 18FEF000#FFFFFFFFFF0000FF
(1666579623.003188) can0 18FEF100#FF0000C0000000FF
(1666579623.013377) can0 18F0010B#CFFFF3FFFF0FFFFF
(1666579623.013513) can0 0CF00400#F07D8EE615FFFF8E
(1666579623.013932) can0 0CF00203#000000FFF74A1403
(1666579623.014145) can0 0CF00C03#3804FFFFFFFFFFFF
(1666579623.016784) can0 18FEBF0B#00007D7D7D7DFFFF
(1666579623.025927) can0 0CF00203#000000FFF74A1403
(1666579623.028870) can0 0CF00400#F07D8EE615FFFF8E
(1666579623.040500) can0 0CF00203#000000FFF74E1403
(1666579623.040667) can0 0CF00C03#5504FFFFFFFFFFFF
(1666579623.041062) can0 18F00503#7D00007D4E204E43
(1666579623.041270) can0 0C010305#FFFFE0FFFF3F3FFF
(1666579623.041638) can0 18EF0503#FFFFFFFFFF004E4E
(1666579623.043557) can0 18FE4A03#03134CE0FFF1FFFF
(1666579623.043698) can0 0CF00400#F07D8EE215FFFF8E
(1666579623.044179) can0 0CF00300#DF000FFFFFFFFFFF
(1666579623.052444) can0 0CF00203#000000FFF74E1403
(1666579623.052564) can0 18F00197#FFFFF0FFFFFFFFFF
(1666579623.058386) can0 0CF00400#F07D8EE215FFFF8E
(1666579623.065169) can0 0CF00203#000000FFF75A1403
(1666579623.065178) can0 0CF00C03#5504FFFFFFFFFFFF
(1666579623.071097) can0 0CF00400#F07D8EE615FFFF8E
(1666579623.076450) can0 0CF00203#000000FFF75A1403
(1666579623.088931) can0 0CF00203#000000FFF74C1403
(1666579623.089082) can0 0CF00400#F07D8EE615FFFF8E
(1666579623.089448) can0 0CF00C03#5804FFFFFFFFFFFF
(1666579623.089670) can0 0CF00300#DF000FFFFFFFFFFF
(1666579623.091950) can0 0C010305#FFFFE0FFFF3F3FFF
(1666579623.092216) can0 18FEDF00#84E015FFFBFFFFFF
(1666579623.092528) can0 18F00029#F07DFFFFFFFFFFFF
(1666579623.092812) can0 18FEE000#FFFFFFFF83040000
(1666579623.093076) can0 18FEEF00#FFFFFF6AFFFFFFFF
(1666579623.095241) can0 18FEF200#52000000EF00FFFF
(1666579623.095499) can0 18FEF600#FF0037FFFFFFFFFF
(1666579623.095769) can0 18FEDB00#A20AFFFFFFFFFFFF
(1666579623.096079) can0 18FEF000#FFFFFFFFFF0000FF
(1666579623.098211) can0 18FEF100#FF0000C0000000FF
(1666579623.100986) can0 0CF00203#000000FFF74C1403
(1666579623.101279) can0 0CF00400#F07D8EDA15FFFF8E
(1666579623.113162) can0 18F0010B#CFFFF3FFFF0FFFFF
(1666579623.113334) can0 0CF00203#000000FFF7421403
(1666579623.113693) can0 0CF00C03#4804FFFFFFFFFFFF
(1666579623.119033) can0 18FEBF0B#00007D7D7D7DFFFF
(1666579623.119180) can0 0CF00400#F07D8EDA15FFFF8E
(1666579623.127484) can0 0CF00203#000000FFF7421403
(1666579623.130933) can0 0CF00400#F07D8EC915FFFF8E
(1666579623.137400) can0 0C010305#FFFFE0FFFF3F3FFF
(1666579623.139430) can0 0CF00203#000000FFF7361403
(1666579623.139612) can0 0CF00C03#2604FFFFFFFFFFFF
(1666579623.139872) can0 18F00503#7D00007D4E204E43
(1666579623.142939) can0 18EF0503#FFFFFFFFFF004E4E
(1666579623.143088) can0 18FE4A03#03134CE0FFF1FFFF
(1666579623.146371) can0 0CF00400#F07D8EC915FFFF8E
(1666579623.149086) can0 0CF00300#DF000FFFFFFFFFFF
(1666579623.152213) can0 0CF00203#000000FFF7361403
(1666579623.152287) can0 18F00197#FFFFF0FFFFFFFFFF
(1666579623.163883) can0 0CF00400#F07D8EC515FFFF8E
(1666579623.164157) can0 0CF00203#000000FFF73C1403
(1666579623.164402) can0 0CF00C03#1404FFFFFFFFFFFF
(1666579623.175314) can0 0CF00203#000000FFF73C1403
(1666579623.178427) can0 0CF00400#F07D8EC515FFFF8E
(1666579623.185469) can0 0C010305#FFFFE0FFFF3F3FFF
(1666579623.190951) can0 0CF00203#000000FFF74A1403
(1666579623.191179) can0 0CF00C03#1804FFFFFFFFFFFF
(1666579623.193156) can0 0CF00400#F07D8EE215FFFF8E
(1666579623.193433) can0 0CF00300#DF0010FFFFFFFFFF
(1666579623.193740) can0 18F00029#F07DFFFFFFFFFFFF
(1666579623.197236) can0 18FEE000#FFFFFFFF83040000
(1666579623.197508) can0 18FEF200#50000000EF00FFFF
(1666579623.197834) can0 18FEF000#FFFFFFFFFF0000FF
(1666579623.198098) can0 18FEF100#FF0000C0000000FF
(1666579623.200237) can0 0CF00203#000000FFF74A1403
(1666579623.206144) can0 0CF00400#F07D8EE215FFFF8E
(1666579623.214333) can0 18F0010B#CFFFF3FFFF0FFFFF
(1666579623.214609) can0 0CF00203#000000FFF73C1403
(1666579623.214885) can0 0CF00C03#4B04FFFFFFFFFFFF
(1666579623.217632) can0 18FEBF0B#00007D7D7D7DFFFF
(1666579623.221117) can0 0CF00400#F07D8EEB15FFFF8E
(1666579623.226784) can0 0CF00203#000000FFF73C1403
(1666579623.235035) can0 0C010305#FFFFE0FFFF3F3FFF
(1666579623.238554) can0 0CF00400#F07D8EEB15FFFF8E
(1666579623.238831) can0 0CF00300#DF0010FFFFFFFFFF
(1666579623.239122) can0 0CF00203#000000FFF7301403
(1666579623.239408) can0 0CF00C03#5E04FFFFFFFFFFFF
(1666579623.239696) can0 18F00503#7D00007D4E204E43
(1666579623.241549) can0 18EF0503#FFFFFFFFFF004E4E
(1666579623.241811) can0 18FE4A03#03134CE0FFF1FFFF
(1666579623.250141) can0 0CF00203#000000FFF7301403
(1666579623.253233) can0 0CF00400#F07D8EE215FFFF8E
(1666579623.253535) can0 18F00197#FFFFF0FFFFFFFFFF
(1666579623.265223) can0 0CF00203#000000FFF72A1403
(1666579623.265495) can0 0CF00C03#6A04FFFFFFFFFFFF
(1666579623.268312) can0 0CF00400#F07D8EE215FFFF8E
(1666579623.277265) can0 0CF00203#000000FFF72A1403
(1666579623.283462) can0 0CF00400#F07D8ED615FFFF8E
(1666579623.283761) can0 0C010305#FFFFE0FFFF3F3FFF
(1666579623.290084) can0 0CF00203#000000FFF7381403
(1666579623.290239) can0 0CF00C03#6104FFFFFFFFFFFF
(1666579623.298837) can0 0CF00400#F07D8EC915FFFF8E
(1666579623.299012) can0 0CF00300#DF000FFFFFFFFFFF
(1666579623.299417) can0 18F00029#F07DFFFFFFFFFFFF
(1666579623.299588) can0 18FEE000#FFFFFFFF83040000
(1666579623.301404) can0 18FEF200#50000000EF00FFFF
(1666579623.301568) can0 18FEF000#FFFFFFFFFF0000FF
(1666579623.301881) can0 0CF00203#000000FFF7381403
(1666579623.302167) can0 18FEF100#FF0000C0000000FF
(1666579623.313505) can0 0CF00400#F07D8EC915FFFF8E
(1666579623.313662) can0 18F0010B#CFFFF3FFFF0FFFFF
(1666579623.313979) can0 0CF00203#000000FFF7401403
(1666579623.314266) can0 0CF00C03#4104FFFFFFFFFFFF
(1666579623.319377) can0 18FFC81A#1F0503807D91FFFF
(1666579623.319697) can0 18FEBF0B#00007D7D7D7DFFFF
(1666579623.325536) can0 0CF00203#000000FFF7401403
(1666579623.328890) can0 0CF00400#F07D8ED615FFFF8E
(1666579623.329192) can0 0C010305#FFFFE0FFFF3F3FFF
(1666579623.341036) can0 0CF00203#000000FFF7541403
(1666579623.341181) can0 0CF00C03#2304FFFFFFFFFFFF
(1666579623.341478) can0 18F00503#7D00007D4E204E43
(1666579623.341766) can0 18EF0503#FFFFFFFFFF004E4E
(1666579623.342175) can0 18FE4A03#03134CE0FFF1FFFF
(1666579623.342260) can0 0CF00400#F07D8ED615FFFF8E
(1666579623.344192) can0 0CF00300#DF0010FFFFFFFFFF
(1666579623.344364) can0 18FEDF00#84E015FFFBFFFFFF
(1666579623.352465) can0 0CF00203#000000FFF7541403
(1666579623.352613) can0 18F00197#FFFFF0FFFFFFFFFF
(1666579623.355815) can0 0CF00400#F07D8EEF15FFFF8E
(1666579623.364579) can0 0CF00203#000000FFF7481403
(1666579623.364893) can0 0CF00C03#1404FFFFFFFFFFFF
(1666579623.373686) can0 0CF00400#F07D8EEF15FFFF8E
(1666579623.377239) can0 0CF00203#000000FFF7481403
(1666579623.380255) can0 0C010305#FFFFE0FFFF3F3FFF
(1666579623.388636) can0 0CF00400#F07D8EF315FFFF8E
(1666579623.388787) can0 0CF00300#DF0010FFFFFFFFFF
(1666579623.389187) can0 18F00029#F07DFFFFFFFFFFFF
(1666579623.389364) can0 0CF00203#000000FFF7461403
(1666579623.392331) can0 18FEE000#FFFFFFFF83040000
(1666579623.392489) can0 0CF00C03#3104FFFFFFFFFFFF
(1666579623.392888) can0 18FEF200#50000000EF00FFFF
(1666579623.393080) can0 18FEF000#FFFFFFFFFF0000FF
(1666579623.393485) can0 18FEF100#FF0000C0000000FF
(1666579623.400466) can0 0CF00203#000000FFF7461403
(1666579623.404023) can0 0CF00400#F07D8EF315FFFF8E
(1666579623.412534) can0 18F0010B#CFFFF3FFFF0FFFFF
(1666579623.415536) can0 0CF00203#000000FFF74C1403
(1666579623.415737) can0 0CF00C03#3B04FFFFFFFFFFFF
(1666579623.418902) can0 0CF00400#F07D8EEF15FFFF8E
(1666579623.419081) can0 18FEBF0B#00007D7D7D7DFFFF
(1666579623.428100) can0 0CF00203#000000FFF74C1403
(1666579623.428226) can0 0C010305#FFFFE0FFFF3F3FFF
(1666579623.434312) can0 0CF00400#F07D8EEF15FFFF8E
(1666579623.439513) can0 0CF00203#000000FFF75C1403
(1666579623.439664) can0 0CF00C03#4B04FFFFFFFFFFFF
(1666579623.439962) can0 18F00503#7D00007D4E204E43
(1666579623.442592) can0 18EF0503#FFFFFFFFFF004E4E
(1666579623.442739) can0 18FE4A03#03134CE0FFF1FFFF
(1666579623.448662) can0 0CF00400#F07D8ED615FFFF8E
(1666579623.448814) can0 0CF00300#DF000FFFFFFFFFFF
(1666579623.451963) can0 0CF00203#000000FFF75C1403
(1666579623.452137) can0 18F00197#FFFFF0FFFFFFFFFF
(1666579623.461339) can0 0CF00400#F07D8ED615FFFF8E
(1666579623.463482) can0 0CF00203#000000FFF7581403
(1666579623.463639) can0 0CF00C03#5204FFFFFFFFFFFF
(1666579623.472484) can0 0C010305#FFFFE0FFFF3F3FFF
(1666579623.475487) can0 0CF00203#000000FFF7581403
(1666579623.479023) can0 0CF00400#F07D8EC515FFFF8E
(1666579623.490789) can0 0CF00203#000000FFF7521403
(1666579623.490939) can0 0CF00C03#4E04FFFFFFFFFFFF
(1666579623.494159) can0 0CF00400#F07D8EC515FFFF8E
(1666579623.494305) can0 0CF00300#DF000FFFFFFFFFFF
(1666579623.494636) can0 18F00029#F07DFFFFFFFFFFFF
(1666579623.494893) can0 18FEE000#FFFFFFFF83040000
(1666579623.495198) can0 18FEF200#50000000EF00FFFF
(1666579623.495483) can0 18FEF000#FFFFFFFFFF0000FF
(1666579623.497479) can0 18FEF100#FF0000C0000000FF
(1666579623.503008) can0 0CF00203#000000FFF7521403
(1666579623.508807) can0 0CF00400#F07D8EBD15FFFF8E
(1666579623.515412) can0 0CF00203#000000FFF7441403
(1666579623.515565) can0 18F0010B#CFFFF3FFFF0FFFFF
(1666579623.515864) can0 0CF00C03#3B04FFFFFFFFFFFF
(1666579623.518439) can0 18FEF71A#FFFF34021A01FFFF
(1666579623.518613) can0 18FEBF0B#00007D7D7D7DFFFF
(1666579623.521209) can0 0CF00400#F07D8EBD15FFFF8E
(1666579623.521363) can0 0C010305#FFFFE0FFFF3F3FFF
(1666579623.526943) can0 0CF00203#000000FFF7441403
(1666579623.535925) can0 0CF00400#F07D8ECD15FFFF8E
(1666579623.536184) can0 0CF00300#DF0010FFFFFFFFFF
(1666579623.538717) can0 0CF00203#000000FFF7341403
(1666579623.539031) can0 0CF00C03#1804FFFFFFFFFFFF
(1666579623.539289) can0 18F00503#7D00007D4E204E43
(1666579623.541105) can0 18EF0503#FFFFFFFFFF004E4E
(1666579623.541255) can0 18FE4A03#03134CE0FFF1FFFF
(1666579623.550010) can0 0CF00203#000000FFF7341403
(1666579623.553162) can0 0CF00400#F07D8ECD15FFFF8E
(1666579623.553309) can0 18F00197#FFFFF0FFFFFFFFFF
(1666579623.565263) can0 0CF00203#000000FFF7421403
(1666579623.565414) can0 0CF00C03#1404FFFFFFFFFFFF
(1666579623.568039) can0 0CF00400#F07D8EDE15FFFF8E
(1666579623.571526) can0 0C010305#FFFFE0FFFF3F3FFF
(1666579623.577596) can0 0CF00203#000000FFF7421403
(1666579623.583488) can0 0CF00400#F07D8EDE15FFFF8E
(1666579623.589990) can0 0CF00203#000000FFF73C1403
(1666579623.590253) can0 0CF00C03#2304FFFFFFFFFFFF
(1666579623.598559) can0 0CF00400#F07D8EDE15FFFF8E
(1666579623.598836) can0 0CF00300#DF0010FFFFFFFFFF
(1666579623.599108) can0 18FEDF00#84E015FFFBFFFFFF
(1666579623.601886) can0 18F00029#F07DFFFFFFFFFFFF
(1666579623.602186) can0 18FEE000#FFFFFFFF83040000
(1666579623.602433) can0 18FEEE00#52FFFFFFFFFFFFFF
(1666579623.602778) can0 0CF00203#000000FFF73C1403
(1666579623.603084) can0 18FEEF00#FFFFFF6AFFFFFFFF
(1666579623.603293) can0 18FEF200#50000000EF00FFFF
(1666579623.603649) can0 18FEF700#FFFFFFFF2B02FFFF
(1666579623.604816) can0 18FEF600#FF0037FFFFFFFFFF
(1666579623.605000) can0 18FEDB00#260AFFFFFFFFFFFF
(1666579623.605407) can0 18FEF000#FFFFFFFFFF0000FF
(1666579623.608217) can0 18FEF100#FF0000C0000000FF
(1666579623.608486) can0 18FECA00#00FFFFFFFFFFFFFF
(1666579623.608769) can0 18FEE400#FF3FFFFFFFFFFFFF
(1666579623.609095) can0 18FEC100#DD700000FFFFFFFF
(1666579623.609360) can0 18E0FF00#00FFFFFFFFFFFFFF
(1666579623.613383) can0 0CF00400#F07D8EE615FFFF8E
(1666579623.613484) can0 0CF00203#000000FFF7481403
(1666579623.613914) can0 18F0010B#CFFFF3FFFF0FFFFF
(1666579623.616354) can0 0CF00C03#4504FFFFFFFFFFFF
(1666579623.616494) can0 0C010305#FFFFE0FFFF3F3FFF
(1666579623.619462) can0 18FEBF0B#00007D7D7D7DFFFF
(1666579623.625460) can0 0CF00203#000000FFF7481403
(1666579623.628494) can0 0CF00400#F07D8EE615FFFF8E
(1666579623.640464) can0 0CF00203#000000FFF73E1403
(1666579623.640609) can0 0CF00C03#6404FFFFFFFFFFFF
(1666579623.641022) can0 18F00503#7D00007D4E204E43
(1666579623.641162) can0 18EF0503#FFFFFFFFFF004E4E
(1666579623.641588) can0 18FE4A03#03134CE0FFF1FFFF
(1666579623.643821) can0 0CF00400#F07D8EDE15FFFF8E
(1666579623.643962) can0 18FD9503#CCFFFF00FFFFFFFF
(1666579623.644403) can0 0CF00300#DF000FFFFFFFFFFF
(1666579623.644556) can0 18FEF803#FFFFFFFF8024FBDE
(1666579623.649958) can0 0CF00203#000000FFF73E1403
(1666579623.653493) can0 18F00197#FFFFF0FFFFFFFFFF
(1666579623.655484) can0 0CF00400#F07D8EDE15FFFF8E
(1666579623.664842) can0 0CF00203#000000FFF7361403
(1666579623.664960) can0 0CF00C03#7004FFFFFFFFFFFF
(1666579623.668127) can0 0C010305#FFFFE0FFFF3F3FFF
(1666579623.670376) can0 0CF00400#F07D8EDA15FFFF8E
(1666579623.677103) can0 0CF00203#000000FFF7361403
(1666579623.685984) can0 0CF00400#F07D8EDA15FFFF8E
(1666579623.689081) can0 0CF00300#DF000FFFFFFFFFFF
(1666579623.689176) can0 0CF00203#000000FFF7421403
(1666579623.689608) can0 18F00029#F07DFFFFFFFFFFFF
(1666579623.689744) can0 0CF00C03#6404FFFFFFFFFFFF
(1666579623.691825) can0 18FEE000#FFFFFFFF83040000
(1666579623.691934) can0 18FEF200#52000000EF00FFFF
(1666579623.692372) can0 18FEF000#FFFFFFFFFF0000FF
(1666579623.694973) can0 18FEF100#FF0000C0000000FF
(1666579623.700985) can0 0CF00203#000000FFF7421403
(1666579623.701103) can0 0CF00400#F07D8E0016FFFF8E
(1666579623.715303) can0 0CF00203#000000FFF75A1403
(1666579623.715621) can0 0CF00C03#4804FFFFFFFFFFFF
(1666579623.715904) can0 0C010305#FFFFE0FFFF3F3FFF
(1666579623.716191) can0 18F0010B#CFFFF3FFFF0FFFFF
(1666579623.718695) can0 0CF00400#F07D8E0016FFFF8E
(1666579623.719083) can0 18FEA71A#FFFFFF39FFFFFFFF
(1666579623.722037) can0 18FEBF0B#00007D7D7D7DFFFF
(1666579623.724909) can0 0CF00203#000000FFF75A1403
(1666579623.730428) can0 0CF00400#F07D8EF715FFFF8E
(1666579623.739490) can0 0CF00203#000000FFF74C1403
(1666579623.739582) can0 0CF00C03#3104FFFFFFFFFFFF
(1666579623.740017) can0 18F00503#7D00007D4E204E43
(1666579623.742260) can0 18EF0503#FFFFFFFFFF004E4E
(1666579623.742358) can0 18FE4A03#03134CE0FFF1FFFF
(1666579623.748277) can0 0CF00400#F07D8EF715FFFF8E
(1666579623.748431) can0 0CF00300#DF0010FFFFFFFFFF
(1666579623.751818) can0 0CF00203#000000FFF74C1403
(1666579623.751942) can0 18F00197#FFFFF0FFFFFFFFFF
(1666579623.760552) can0 0CF00400#F07D8EF715FFFF8E
(1666579623.763116) can0 0C010305#FFFFE0FFFF3F3FFF
(1666579623.763262) can0 0CF00203#000000FFF7521403
(1666579623.763680) can0 0CF00C03#1404FFFFFFFFFFFF
(1666579623.775289) can0 0CF00203#000000FFF7521403
(1666579623.778298) can0 0CF00400#F07D8EF715FFFF8E
(1666579623.787860) can0 0CF00203#000000FFF7421403
(1666579623.788080) can0 0CF00C03#2604FFFFFFFFFFFF
(1666579623.793460) can0 0CF00400#F07D8EE215FFFF8E
(1666579623.793638) can0 0CF00300#DF000FFFFFFFFFFF
(1666579623.793956) can0 18F00029#F07DFFFFFFFFFFFF
(1666579623.794222) can0 18FEE000#FFFFFFFF83040000
(1666579623.794518) can0 18FEF200#52000000EF00FFFF
(1666579623.796758) can0 18FEF000#FFFFFFFFFF0000FF
(1666579623.796914) can0 18FEF100#FF0000C0000000FF
(1666579623.802467) can0 0CF00203#000000FFF7421403
(1666579623.805907) can0 0CF00400#F07D8EE215FFFF8E
(1666579623.811258) can0 0C010305#FFFFE0FFFF3F3FFF
(1666579623.814543) can0 0CF00203#000000FFF7421403
(1666579623.814713) can0 0CF00C03#4804FFFFFFFFFFFF
(1666579623.815110) can0 18F0010B#CFFFF3FFFF0FFFFF
(1666579623.820452) can0 18FEBF0B#00007D7D7D7DFFFF
(1666579623.820614) can0 0CF00400#F07D8ED115FFFF8E
(1666579623.826465) can0 0CF00203#000000FFF7421403
(1666579623.835415) can0 0CF00400#F07D8ED115FFFF8E
(1666579623.839438) can0 0CF00300#DF000FFFFFFFFFFF
(1666579623.839592) can0 18FEDF00#84E015FFFBFFFFFF
(1666579623.839895) can0 0CF00203#000000FFF75A1403
(1666579623.840164) can0 0CF00C03#4B04FFFFFFFFFFFF
(1666579623.840454) can0 18F00503#7D00007D4E204E43
(1666579623.842531) can0 18EF0503#FFFFFFFFFF004E4E
(1666579623.842710) can0 18FE4A03#03134CE0FFF1FFFF
(1666579623.850384) can0 0CF00400#F07D8EC515FFFF8E
(1666579623.854406) can0 0CF00203#000000FFF75A1403
(1666579623.854515) can0 18F00197#FFFFF0FFFFFFFFFF
(1666579623.859948) can0 0C010305#FFFFE0FFFF3F3FFF
(1666579623.865760) can0 0CF00203#000000FFF74C1403
(1666579623.865913) can0 0CF00C03#5504FFFFFFFFFFFF
(1666579623.866317) can0 0CF00400#F07D8EC515FFFF8E
(1666579623.877412) can0 0CF00203#000000FFF74C1403
(1666579623.880811) can0 0CF00400#F07D8ED615FFFF8E
(1666579623.889294) can0 0CF00203#000000FFF7501403
(1666579623.889441) can0 0CF00C03#4B04FFFFFFFFFFFF
(1666579623.895808) can0 0CF00400#F07D8ED615FFFF8E
(1666579623.895988) can0 0CF00300#DF0010FFFFFFFFFF
(1666579623.899313) can0 18F00029#F07DFFFFFFFFFFFF
(1666579623.899493) can0 18FEE000#FFFFFFFF83040000
(1666579623.899887) can0 18FEF200#52000000EF00FFFF
(1666579623.900080) can0 18FEF000#FFFFFFFFFF0000FF
(1666579623.902358) can0 18FEF100#FF0000C0000000FF
(1666579623.902535) can0 0CF00203#000000FFF7501403
(1666579623.904319) can0 0C010305#FFFFE0FFFF3F3FFF
(1666579623.910159) can0 0CF00400#F07D8EDE15FFFF8E
(1666579623.913328) can0 0CF00203#000000FFF73C1403
(1666579623.913489) can0 0CF00C03#4104FFFFFFFFFFFF
(1666579623.916658) can0 18F0010B#CFFFF3FFFF0FFFFF
(1666579623.919818) can0 18FED51A#460DFFFFFFFFFFFF
(1666579623.919988) can0 18FEBF0B#00007D7D7D7DFFFF
(1666579623.925872) can0 0CF00203#000000FFF73C1403
(1666579623.926029) can0 0CF00400#F07D8EDA15FFFF8E
(1666579623.938038) can0 0CF00203#000000FFF73C1403
(1666579623.940914) can0 0CF00C03#1F04FFFFFFFFFFFF
(1666579623.941079) can0 18F00503#7D00007D4E204E43
(1666579623.941359) can0 18EF0503#FFFFFFFFFF004E4E
(1666579623.944100) can0 0CF00400#F07D8EDA15FFFF8E
(1666579623.944280) can0 18FE4A03#03134CE0FFF1FFFF
(1666579623.944698) can0 0CF00300#DF0010FFFFFFFFFF
(1666579623.944789) can0 18FECA03#F3FF00000000FFFF
(1666579623.952071) can0 0CF00203#000000FFF73C1403
(1666579623.952330) can0 18F00197#FFFFF0FFFFFFFFFF
(1666579623.955574) can0 0C010305#FFFFE0FFFF3F3FFF
(1666579623.955839) can0 0CF00400#F07D8EC515FFFF8E
(1666579623.964431) can0 0CF00203#000000FFF7421403
(1666579623.964589) can0 0CF00C03#1104FFFFFFFFFFFF
(1666579623.970415) can0 0CF00400#F07D8EC515FFFF8E
(1666579623.976296) can0 0CF00203#000000FFF7421403
(1666579623.985462) can0 0CF00400#F07D8EB915FFFF8E
(1666579623.988530) can0 0CF00300#DF000FFFFFFFFFFF
(1666579623.988691) can0 18F00029#F07DFFFFFFFFFFFF
(1666579623.988992) can0 18FEE000#FFFFFFFF83040000
(1666579623.989281) can0 0CF00203#000000FFF7481403
(1666579623.991234) can0 18FEF200#52000000EF00FFFF
(1666579623.991418) can0 0CF00C03#1804FFFFFFFFFFFF
(1666579623.991817) can0 18FEF000#FFFFFFFFFF0000FF
(1666579623.992003) can0 18FEF100#FF0000C0000000FF
(1666579624.000242) can0 0CF00400#F07D8FB915FFFF8F
(1666579624.000537) can0 0CF00203#000000FFF7481403
(1666579624.003306) can0 0C010305#FFFFE0FFFF3F3FFF
(1666579624.015431) can0 0CF00203#000000FFF7341403
(1666579624.015644) can0 0CF00C03#4104FFFFFFFFFFFF
(1666579624.015978) can0 18F0010B#CFFFF3FFFF0FFFFF
(1666579624.016205) can0 0CF00400#F07D8FB015FFFF8F
(1666579624.021374) can0 18FEBF0B#00007D7D7D7DFFFF
(1666579624.027970) can0 0CF00203#000000FFF7341403
(1666579624.031005) can0 0CF00400#F07D8EB015FFFF8E
(1666579624.039791) can0 0CF00203#000000FFF7281403
(1666579624.039945) can0 0CF00C03#6404FFFFFFFFFFFF
(1666579624.040310) can0 18F00503#7D00007D4E204E43
(1666579624.043335) can0 18EF0503#FFFFFFFFFF004E4E
(1666579624.043479) can0 18FE4A03#03134CE0FFF1FFFF
(1666579624.045426) can0 0CF00400#F07D8EDE15FFFF8E
(1666579624.049063) can0 0CF00300#DF0010FFFFFFFFFF
(1666579624.049150) can0 0C010305#FFFFE0FFFF3F3FFF
(1666579624.051780) can0 0CF00203#000000FFF7281403
(1666579624.054876) can0 18F00197#FFFFF0FFFFFFFFFF
(1666579624.061159) can0 0CF00400#F07D8EDE15FFFF8E
(1666579624.063488) can0 0CF00203#000000FFF71E1403
(1666579624.063610) can0 0CF00C03#7604FFFFFFFFFFFF
(1666579624.075467) can0 0CF00400#F07D8EDA15FFFF8E
(1666579624.075557) can0 0CF00203#000000FFF71E1403
(1666579624.088243) can0 0CF00203#000000FFF7321403
(1666579624.088335) can0 0CF00C03#5B04FFFFFFFFFFFF
(1666579624.093985) can0 0CF00400#F07D8EDA15FFFF8E
(1666579624.094140) can0 0CF00300#DF0010FFFFFFFFFF
(1666579624.094554) can0 18FEDF00#84E015FFFBFFFFFF
(1666579624.094799) can0 18F00029#F07DFFFFFFFFFFFF
(1666579624.095199) can0 18FEE000#FFFFFFFF83040000
(1666579624.097137) can0 18FEEF00#FFFFFF6BFFFFFFFF
(1666579624.097257) can0 18FEF200#52000000EF00FFFF
(1666579624.097684) can0 18FEF600#FF0037FFFFFFFFFF
(1666579624.097903) can0 18FEDB00#830AFFFFFFFFFFFF
(1666579624.098273) can0 18FEF000#FFFFFFFFFF0000FF
(1666579624.100374) can0 0C010305#FFFFE0FFFF3F3FFF
(1666579624.100483) can0 18FEF100#FF0000C0000000FF
(1666579624.100943) can0 0CF00203#000000FFF7321403
(1666579624.105459) can0 0CF00400#F07D8EDA15FFFF8E
(1666579624.114371) can0 0CF00203#000000FFF7441403
(1666579624.114523) can0 0CF00C03#2A04FFFFFFFFFFFF
(1666579624.117559) can0 18F0010B#CFFFF3FFFF0FFFFF
(1666579624.120340) can0 0CF00400#F07D8EDA15FFFF8E
(1666579624.120477) can0 18FEBF0B#00007D7D7D7DFFFF
(1666579624.126284) can0 0CF00203#000000FFF7441403
(1666579624.135763) can0 0CF00400#F07D8EC915FFFF8E
(1666579624.135938) can0 0CF00300#DF0010FFFFFFFFFF
(1666579624.139320) can0 0CF00203#000000FFF7381403
(1666579624.139490) can0 0CF00C03#0B04FFFFFFFFFFFF
(1666579624.139770) can0 18F00503#7D00007D4E204E43
(1666579624.141540) can0 18EF0503#FFFFFFFFFF004E4E
(1666579624.141709) can0 18FE4A03#03134CE0FFF1FFFF
(1666579624.147486) can0 0C010305#FFFFE0FFFF3F3FFF
(1666579624.150988) can0 0CF00400#F07D8EC915FFFF8E
(1666579624.151155) can0 0CF00203#000000FFF7381403
(1666579624.154467) can0 18F00197#FFFFF0FFFFFFFFFF
(1666579624.165458) can0 0CF00203#000000FFF7241403
(1666579624.165613) can0 0CF00C03#1B04FFFFFFFFFFFF
(1666579624.165911) can0 0CF00400#F07D8EB915FFFF8E
(1666579624.177838) can0 0CF00203#000000FFF7241403
(1666579624.181130) can0 0CF00400#F07D8FB915FFFF8F
(1666579624.190091) can0 0CF00203#000000FFF7141403
(1666579624.190259) can0 0CF00C03#4104FFFFFFFFFFFF
(1666579624.193082) can0 0C010305#FFFFE0FFFF3F3FFF
(1666579624.196065) can0 0CF00400#F07D8FB015FFFF8F
(1666579624.196255) can0 0CF00300#DF0010FFFFFFFFFF
(1666579624.196657) can0 18F00029#F07DFFFFFFFFFFFF
(1666579624.199042) can0 18FEE000#FFFFFFFF83040000
(1666579624.199256) can0 18FEF200#52000000EF00FFFF
(1666579624.199554) can0 18FEF000#FFFFFFFFFF0000FF
(1666579624.199858) can0 18FEF100#FF0000C0000000FF
(1666579624.202336) can0 0CF00203#000000FFF7141403
(1666579624.211196) can0 0CF00400#F07D8EB015FFFF8E
(1666579624.213364) can0 0CF00203#000000FFF71E1403
(1666579624.213496) can0 0CF00C03#5E04FFFFFFFFFFFF
(1666579624.216715) can0 18F0010B#CFFFF3FFFF0FFFFF
(1666579624.220235) can0 18FEBF0B#00007D7D7D7DFFFF
(1666579624.225439) can0 0CF00400#F07D8EC915FFFF8E
(1666579624.225534) can0 0CF00203#000000FFF71E1403
(1666579624.240493) can0 0CF00203#000000FFF7241403
(1666579624.240584) can0 0CF00C03#7004FFFFFFFFFFFF
(1666579624.241017) can0 18F00503#7D00007D4E204E43
(1666579624.241164) can0 0C010305#FFFFE0FFFF3F3FFF
(1666579624.241587) can0 0CF00400#F07D8EC915FFFF8E
(1666579624.243646) can0 18EF0503#FFFFFFFFFF004E4E
(1666579624.243794) can0 0CF00300#DF0010FFFFFFFFFF
(1666579624.244143) can0 18FE4A03#03134CE0FFF1FFFF
(1666579624.252327) can0 0CF00203#000000FFF7241403
(1666579624.252581) can0 18F00197#FFFFF0FFFFFFFFFF
(1666579624.255332) can0 0CF00400#F07D8EDE15FFFF8E
(1666579624.264081) can0 0CF00203#000000FFF7381403
(1666579624.264374) can0 0CF00C03#6104FFFFFFFFFFFF
(1666579624.270489) can0 0CF00400#F07D8EDE15FFFF8E
(1666579624.276278) can0 0CF00203#000000FFF7381403
(1666579624.286285) can0 0CF00400#F07D8EDE15FFFF8E
(1666579624.286371) can0 0CF00300#DF0010FFFFFFFFFF
(1666579624.286832) can0 18F00029#F07DFFFFFFFFFFFF
(1666579624.289087) can0 18FEE000#FFFFFFFF83040000
(1666579624.289236) can0 18FEF200#52000000EF00FFFF
(1666579624.289548) can0 0CF00203#000000FFF7321403
(1666579624.289829) can0 0C010305#FFFFE0FFFF3F3FFF
(1666579624.290115) can0 0CF00C03#5504FFFFFFFFFFFF
(1666579624.292209) can0 18FEF000#FFFFFFFFFF0000FF
(1666579624.292359) can0 18FEF100#FF0000C0000000FF
(1666579624.300584) can0 0CF00400#F07D8ED115FFFF8E
(1666579624.300737) can0 0CF00203#000000FFF7321403
(1666579624.315463) can0 0CF00203#000000FFF7301403
(1666579624.315623) can0 0CF00C03#3B04FFFFFFFFFFFF
(1666579624.315896) can0 0CF00400#F07D8ED115FFFF8E
(1666579624.318642) can0 18F0010B#CFFFF3FFFF0FFFFF
(1666579624.318919) can0 18FFC81A#1F0503807D91FFFF
(1666579624.321834) can0 18FEBF0B#00007D7D7D7DFFFF
(1666579624.325238) can0 0CF00203#000000FFF7301403
(1666579624.330759) can0 0CF00400#F07D8EC115FFFF8E
(1666579624.336764) can0 0C010305#FFFFE0FFFF3F3FFF
(1666579624.340050) can0 0CF00203#000000FFF7361403
(1666579624.340231) can0 0CF00C03#1804FFFFFFFFFFFF
(1666579624.340631) can0 18F00503#7D00007D4E204E43
(1666579624.340788) can0 18EF0503#FFFFFFFFFF004E4E
(1666579624.343333) can0 18FE4A03#03134CE0FFF1FFFF
(1666579624.345402) can0 0CF00400#F07D8EC115FFFF8E
(1666579624.345611) can0 0CF00300#DF0010FFFFFFFFFF
(1666579624.348460) can0 18FEDF00#84E015FFFBFFFFFF
(1666579624.351760) can0 0CF00203#000000FFF7361403
(1666579624.355180) can0 18F00197#FFFFF0FFFFFFFFFF
(1666579624.360888) can0 0CF00400#F07D8FB415FFFF8F
(1666579624.363704) can0 0CF00203#000000FFF7441403
(1666579624.363887) can0 0CF00C03#0E04FFFFFFFFFFFF
(1666579624.375491) can0 0CF00400#F07D8FB415FFFF8F
(1666579624.375638) can0 0CF00203#000000FFF7441403
(1666579624.387438) can0 0C010305#FFFFE0FFFF3F3FFF
(1666579624.390713) can0 0CF00203#000000FFF7321403
(1666579624.390887) can0 0CF00C03#2A04FFFFFFFFFFFF
(1666579624.391284) can0 0CF00400#F07D8EC915FFFF8E
(1666579624.391462) can0 0CF00300#DF0010FFFFFFFFFF
(1666579624.393879) can0 18F00029#F07DFFFFFFFFFFFF
(1666579624.394079) can0 18FEE000#FFFFFFFF83040000
(1666579624.394349) can0 18FEF200#52000000EF00FFFF
(1666579624.394659) can0 18FEF000#FFFFFFFFFF0000FF
(1666579624.397056) can0 18FEF100#FF0000C0000000FF
(1666579624.402763) can0 0CF00203#000000FFF7321403
(1666579624.405831) can0 0CF00400#F07D8EC915FFFF8E
(1666579624.414440) can0 0CF00203#000000FFF7301403
(1666579624.414587) can0 0CF00C03#5204FFFFFFFFFFFF
(1666579624.417932) can0 18F0010B#CFFFF3FFFF0FFFFF
(1666579624.421357) can0 0CF00400#F07D8FC115FFFF8F
(1666579624.421514) can0 18FEBF0B#00007D7D7D7DFFFF
(1666579624.427089) can0 0CF00203#000000FFF7301403
(1666579624.435470) can0 0C010305#FFFFE0FFFF3F3FFF
(1666579624.435614) can0 0CF00400#F07D8FC115FFFF8F
(1666579624.438943) can0 0CF00300#DF0010FFFFFFFFFF
(1666579624.439079) can0 0CF00203#000000FFF7241403
(1666579624.439487) can0 0CF00C03#6104FFFFFFFFFFFF
(1666579624.439668) can0 18F00503#7D00007D4E204E43
(1666579624.441734) can0 18EF0503#FFFFFFFFFF004E4E
(1666579624.441888) can0 18FE4A03#03134CE0FFF1FFFF
(1666579624.450459) can0 0CF00400#F07D8FC115FFFF8F
(1666579624.450640) can0 0CF00203#000000FFF7241403
(1666579624.453986) can0 18F00197#FFFFF0FFFFFFFFFF
(1666579624.465464) can0 0CF00203#000000FFF7281403
(1666579624.465614) can0 0CF00C03#5B04FFFFFFFFFFFF
(1666579624.466018) can0 0CF00400#F07D8FC115FFFF8F
(1666579624.477665) can0 0CF00203#000000FFF7281403
(1666579624.480664) can0 0CF00400#F07D8FB415FFFF8F
(1666579624.480839) can0 0C010305#FFFFE0FFFF3F3FFF
(1666579624.489879) can0 0CF00203#000000FFF7421403
(1666579624.490028) can0 0CF00C03#3404FFFFFFFFFFFF
(1666579624.495245) can0 0CF00400#F07D8FB415FFFF8F
(1666579624.495462) can0 0CF00300#DF0010FFFFFFFFFF
(1666579624.498359) can0 18F00029#F07DFFFFFFFFFFFF
(1666579624.498514) can0 18FEE000#FFFFFFFF83040000
(1666579624.498832) can0 18FEF200#52000000EF00FFFF
(1666579624.499131) can0 18FEF000#FFFFFFFFFF0000FF
(1666579624.499420) can0 18FEF100#FF0000C0000000FF
(1666579624.501607) can0 0CF00203#000000FFF7421403
(1666579624.510456) can0 0CF00400#F07D8EAC15FFFF8E
(1666579624.513906) can0 0CF00203#000000FFF7361403
(1666579624.514084) can0 0CF00C03#1404FFFFFFFFFFFF
(1666579624.517312) can0 18F0010B#CFFFF3FFFF0FFFFF
(1666579624.520100) can0 18FEF71A#FFFF34021A01FFFF
(1666579624.522859) can0 18FEBF0B#00007D7D7D7DFFFF
(1666579624.525104) can0 0CF00400#F07D8EAC15FFFF8E
(1666579624.525281) can0 0CF00203#000000FFF7361403
(1666579624.528677) can0 0C010305#FFFFE0FFFF3F3FFF
(1666579624.540736) can0 0CF00203#000000FFF73E1403
(1666579624.540913) can0 0CF00C03#0704FFFFFFFFFFFF
(1666579624.541194) can0 0CF00400#F07D8EAC15FFFF8E
(1666579624.541460) can0 18F00503#7D00007D4E204E43
(1666579624.541855) can0 0CF00300#DF0010FFFFFFFFFF
(1666579624.542084) can0 18EF0503#FFFFFFFFFF004E4E
(1666579624.542349) can0 18FE4A03#03134CE0FFF1FFFF
(1666579624.552848) can0 0CF00203#000000FFF73E1403
(1666579624.553079) can0 18F00197#FFFFF0FFFFFFFFFF
(1666579624.555079) can0 0CF00400#F07D8EAC15FFFF8E
(1666579624.564327) can0 0CF00203#000000FFF7301403
(1666579624.564489) can0 0CF00C03#1B04FFFFFFFFFFFF
(1666579624.571014) can0 0CF00400#F07D8ED115FFFF8E
(1666579624.576667) can0 0CF00203#000000FFF7301403
(1666579624.579821) can0 0C010305#FFFFE0FFFF3F3FFF
(1666579624.585175) can0 0CF00400#F07D8ED115FFFF8E
(1666579624.589106) can0 0CF00300#DF0010FFFFFFFFFF
(1666579624.589281) can0 18FEDF00#84E015FFFBFFFFFF
(1666579624.589680) can0 18F00029#F07DFFFFFFFFFFFF
(1666579624.589863) can0 18FEE000#FFFFFFFF83040000
(1666579624.590153) can0 0CF00203#000000FFF72E1403
(1666579624.590440) can0 18FEEE00#52FFFFFFFFFFFFFF
(1666579624.590860) can0 0CF00C03#5804FFFFFFFFFFFF
(1666579624.591988) can0 18FEEF00#FFFFFF6AFFFFFFFF
(1666579624.592156) can0 18FEF200#52000000EF00FFFF
(1666579624.592561) can0 18FEF700#FFFFFFFF2C02FFFF
(1666579624.592746) can0 18FEF600#FF0037FFFFFFFFFF
(1666579624.595227) can0 18FEDB00#F50AFFFFFFFFFFFF
(1666579624.595437) can0 18FEF000#FFFFFFFFFF0000FF
(1666579624.595837) can0 18FEF100#FF0000C0000000FF
(1666579624.596022) can0 18FECA00#00FFFFFFFFFFFFFF
(1666579624.596423) can0 18FEE400#FF3FFFFFFFFFFFFF
(1666579624.598373) can0 18FEC100#DD700000FFFFFFFF
(1666579624.598579) can0 18E0FF00#00FFFFFFFFFFFFFF
(1666579624.600434) can0 0CF00400#F07D8FE615FFFF8F
(1666579624.600614) can0 0CF00203#000000FFF72E1403
(1666579624.613101) can0 0CF00203#000000FFF7341403
(1666579624.613280) can0 0CF00C03#6104FFFFFFFFFFFF
(1666579624.614993) can0 0CF00400#F07D8FE615FFFF8F
(1666579624.618643) can0 18F0010B#CFFFF3FFFF0FFFFF
(1666579624.622261) can0 18FEBF0B#00007D7D7D7DFFFF
(1666579624.624256) can0 0C010305#FFFFE0FFFF3F3FFF
(1666579624.627107) can0 0CF00203#000000FFF7341403
(1666579624.630370) can0 0CF00400#F07D8EE615FFFF8E
(1666579624.639287) can0 0CF00203#000000FFF73E1403
(1666579624.639438) can0 0CF00C03#6104FFFFFFFFFFFF
(1666579624.639738) can0 18F00503#7D00007D4E204E43
(1666579624.642576) can0 18EF0503#FFFFFFFFFF004E4E
(1666579624.642715) can0 18FE4A03#03134CE0FFF1FFFF
(1666579624.643103) can0 18FD9503#CCFFFF00FFFFFFFF
(1666579624.643305) can0 18FEF803#FFFFFFFF8024FBDE
(1666579624.645206) can0 0CF00400#F07D8EDA15FFFF8E
(1666579624.645389) can0 0CF00300#DF0010FFFFFFFFFF
(1666579624.651342) can0 0CF00203#000000FFF73E1403
(1666579624.654410) can0 18F00197#FFFFF0FFFFFFFFFF
(1666579624.660263) can0 0CF00400#F07D8EDA15FFFF8E
(1666579624.663699) can0 0CF00203#000000FFF7441403
(1666579624.663863) can0 0CF00C03#5804FFFFFFFFFFFF
(1666579624.676140) can0 0C010305#FFFFE0FFFF3F3FFF
(1666579624.676288) can0 0CF00400#F07D8ECD15FFFF8E
(1666579624.676685) can0 0CF00203#000000FFF7441403
(1666579624.690314) can0 0CF00203#000000FFF7461403
(1666579624.690464) can0 0CF00C03#3804FFFFFFFFFFFF
(1666579624.690771) can0 0CF00400#F07D8FCD15FFFF8F
(1666579624.691195) can0 0CF00300#DF0010FFFFFFFFFF
(1666579624.693638) can0 18F00029#F07DFFFFFFFFFFFF
(1666579624.693789) can0 18FEE000#FFFFFFFF83040000
(1666579624.694042) can0 18FEF200#52000000EF00FFFF
(1666579624.694398) can0 18FEF000#FFFFFFFFFF0000FF
(1666579624.696582) can0 18FEF100#FF0000C0000000FF
(1666579624.702838) can0 0CF00203#000000FFF7461403
(1666579624.705682) can0 0CF00400#F07D8FDE15FFFF8F
(1666579624.714467) can0 0CF00203#000000FFF7441403
(1666579624.714613) can0 0CF00C03#2D04FFFFFFFFFFFF
(1666579624.718010) can0 18F0010B#CFFFF3FFFF0FFFFF
(1666579624.718102) can0 18FEA71A#FFFFFF39FFFFFFFF
(1666579624.720834) can0 0CF00400#F07D8EDE15FFFF8E
(1666579624.723770) can0 0C010305#FFFFE0FFFF3F3FFF
(1666579624.723939) can0 18FEBF0B#00007D7D7D7DFFFF
(1666579624.726991) can0 0CF00203#000000FFF7441403
(1666579624.735307) can0 0CF00400#F07D8EF315FFFF8E
(1666579624.735488) can0 0CF00300#DF0010FFFFFFFFFF
(1666579624.739359) can0 0CF00203#000000FFF7561403
(1666579624.739565) can0 0CF00C03#0E04FFFFFFFFFFFF
(1666579624.739969) can0 18F00503#7D00007D4E204E43
(1666579624.742440) can0 18EF0503#FFFFFFFFFF004E4E
(1666579624.742518) can0 18FE4A03#03134CE0FFF1FFFF
(1666579624.750437) can0 0CF00400#F07D8EF315FFFF8E
(1666579624.750613) can0 0CF00203#000000FFF7561403
(1666579624.753516) can0 18F00197#FFFFF0FFFFFFFFFF
(1666579624.765434) can0 0CF00203#000000FFF76E1403
(1666579624.765612) can0 0CF00C03#1404FFFFFFFFFFFF
(1666579624.766014) can0 0CF00400#F07D8EEF15FFFF8E
(1666579624.768557) can0 0C010305#FFFFE0FFFF3F3FFF
(1666579624.777738) can0 0CF00203#000000FFF76E1403
(1666579624.781087) can0 0CF00400#F07D8EEF15FFFF8E
(1666579624.789622) can0 0CF00203#000000FFF7661403
(1666579624.789767) can0 0CF00C03#3104FFFFFFFFFFFF
(1666579624.795081) can0 0CF00400#F07D8EEB15FFFF8E
(1666579624.795279) can0 0CF00300#DF000FFFFFFFFFFF
(1666579624.795676) can0 18F00029#F07DFFFFFFFFFFFF
(1666579624.798212) can0 18FEE000#FFFFFFFF83040000
(1666579624.798286) can0 18FEF200#52000000EF00FFFF
(1666579624.798643) can0 18FEF000#FFFFFFFFFF0000FF
(1666579624.798930) can0 18FEF100#FF0000C0000000FF
(1666579624.801929) can0 0CF00203#000000FFF7661403
(1666579624.810110) can0 0CF00400#F07D8EEB15FFFF8E
(1666579624.813941) can0 0CF00203#000000FFF7661403
(1666579624.814236) can0 0CF00C03#4504FFFFFFFFFFFF
(1666579624.816793) can0 18F0010B#CFFFF3FFFF0FFFFF
(1666579624.819031) can0 0C010305#FFFFE0FFFF3F3FFF
(1666579624.825388) can0 18FEBF0B#00007D7D7D7DFFFF
(1666579624.825542) can0 0CF00400#F07D8EDE15FFFF8E
(1666579624.825842) can0 0CF00203#000000FFF7661403
(1666579624.838368) can0 0CF00203#000000FFF7641403
(1666579624.838552) can0 0CF00C03#4E04FFFFFFFFFFFF
(1666579624.840447) can0 0CF00400#F07D8EDE15FFFF8E
(1666579624.840613) can0 18F00503#7D00007D4E204E43
(1666579624.840931) can0 0CF00300#DF0010FFFFFFFFFF
(1666579624.843377) can0 18EF0503#FFFFFFFFFF004E4E
(1666579624.843674) can0 18FEDF00#84E015FFFBFFFFFF
(1666579624.843946) can0 18FE4A03#03134CE0FFF1FFFF
(1666579624.852358) can0 0CF00203#000000FFF7641403
(1666579624.852635) can0 18F00197#FFFFF0FFFFFFFFFF
(1666579624.855759) can0 0CF00400#F07D8ED115FFFF8E
(1666579624.864245) can0 0CF00203#000000FFF7641403
(1666579624.864416) can0 0CF00C03#3E04FFFFFFFFFFFF
(1666579624.867502) can0 0C010305#FFFFE0FFFF3F3FFF
(1666579624.870981) can0 0CF00400#F07D8FD115FFFF8F
(1666579624.876733) can0 0CF00203#000000FFF7641403
(1666579624.885285) can0 0CF00400#F07D8FC915FFFF8F
(1666579624.885413) can0 0CF00300#DF0010FFFFFFFFFF
(1666579624.885839) can0 18F00029#F07DFFFFFFFFFFFF
(1666579624.888456) can0 18FEE000#FFFFFFFF83040000
(1666579624.888615) can0 18FEF200#52000000EF00FFFF
(1666579624.889013) can0 18FEF000#FFFFFFFFFF0000FF
(1666579624.889206) can0 0CF00203#000000FFF7681403
(1666579624.889598) can0 18FEF100#FF0000C0000000FF
(1666579624.891431) can0 0CF00C03#2A04FFFFFFFFFFFF
(1666579624.900347) can0 0CF00400#F07D8FC915FFFF8F
(1666579624.900514) can0 0CF00203#000000FFF7681403
(1666579624.912305) can0 0C010305#FFFFE0FFFF3F3FFF
(1666579624.915683) can0 0CF00203#000000FFF7761403
(1666579624.915888) can0 0CF00C03#0404FFFFFFFFFFFF
(1666579624.916169) can0 0CF00400#F07D8FF715FFFF8F
(1666579624.918749) can0 18FED51A#380DFFFFFFFFFFFF
(1666579624.919013) can0 18F0010B#CFFFF3FFFF0FFFFF
(1666579624.924328) can0 18FEBF0B#00007D7D7D7DFFFF
(1666579624.928067) can0 0CF00203#000000FFF7761403
(1666579624.928319) can0 0CF00400#F07D8E0416FFFF8E
(1666579624.939462) can0 0CF00203#000000FFF76A1403
(1666579624.939638) can0 0CF00C03#1404FFFFFFFFFFFF
(1666579624.939937) can0 18F00503#7D00007D4E204E43
(1666579624.942561) can0 18EF0503#FFFFFFFFFF004E4E
(1666579624.942711) can0 18FE4A03#03134CE0FFF1FFFF
(1666579624.943111) can0 18FECA03#F3FF00000000FFFF
(1666579624.945736) can0 0CF00400#F07D8E0416FFFF8E
(1666579624.945937) can0 0CF00300#DF0010FFFFFFFFFF
(1666579624.951815) can0 0CF00203#000000FFF76A1403
(1666579624.955321) can0 18F00197#FFFFF0FFFFFFFFFF
(1666579624.958135) can0 0CF00400#F07D8E0816FFFF8E
(1666579624.963280) can0 0C010305#FFFFE0FFFF3F3FFF
(1666579624.963437) can0 0CF00203#000000FFF7681403
(1666579624.963836) can0 0CF00C03#1B04FFFFFFFFFFFF
(1666579624.975291) can0 0CF00400#F07D8E0816FFFF8E
(1666579624.975524) can0 0CF00203#000000FFF7681403
(1666579624.990895) can0 0CF00203#000000FFF75E1403
(1666579624.991037) can0 0CF00C03#4B04FFFFFFFFFFFF
(1666579624.991462) can0 0CF00400#F07D8E0816FFFF8E
(1666579624.991677) can0 0CF00300#DF000FFFFFFFFFFF
(1666579624.991989) can0 18F00029#F07DFFFFFFFFFFFF
(1666579624.992266) can0 18FEE000#FFFFFFFF83040000
(1666579624.992549) can0 18FEF200#52000000EF00FFFF
(1666579624.993741) can0 18FEF000#FFFFFFFFFF0000FF
(1666579624.994092) can0 18FEF100#FF0000C0000000FF
(1666579625.002636) can0 0CF00203#000000FFF75E1403
(1666579625.005572) can0 0CF00400#F07D8E0816FFFF8E
(1666579625.011645) can0 0C010305#FFFFE0FFFF3F3FFF
(1666579625.015189) can0 0CF00203#000000FFF7741403
(1666579625.015428) can0 0CF00C03#5204FFFFFFFFFFFF
(1666579625.020422) can0 18F0010B#CFFFF3FFFF0FFFFF
(1666579625.020638) can0 0CF00400#F07D8E0016FFFF8E
(1666579625.023658) can0 18FEBF0B#00007D7D7D7DFFFF
(1666579625.026990) can0 0CF00203#000000FFF7741403
(1666579625.035629) can0 0CF00400#F07D8E0016FFFF8E
(1666579625.035816) can0 0CF00300#DF000FFFFFFFFFFF
(1666579625.038889) can0 0CF00203#000000FFF7861403
(1666579625.039110) can0 0CF00C03#5204FFFFFFFFFFFF
(1666579625.039399) can0 18F00503#7D00007D4E204E43
(1666579625.042526) can0 18EF0503#FFFFFFFFFF004E4E
(1666579625.042556) can0 18FE4A03#03134CE0FFF1FFFF
(1666579625.047805) can0 0CF00400#F07D8EF715FFFF8E
(1666579625.050916) can0 0CF00203#000000FFF7861403
(1666579625.054517) can0 18F00197#FFFFF0FFFFFFFFFF
(1666579625.056483) can0 0C010305#FFFFE0FFFF3F3FFF
(1666579625.065471) can0 0CF00203#000000FFF7801403
(1666579625.065644) can0 0CF00C03#4E04FFFFFFFFFFFF
(1666579625.065931) can0 0CF00400#F07D8EF715FFFF8E
(1666579625.077449) can0 0CF00203#000000FFF7801403
(1666579625.080901) can0 0CF00400#F07D8E0816FFFF8E
(1666579625.089849) can0 0CF00203#000000FFF7801403
(1666579625.090010) can0 0CF00C03#3804FFFFFFFFFFFF
(1666579625.096366) can0 0CF00400#F07D8E0816FFFF8E
(1666579625.096566) can0 0CF00300#DF000FFFFFFFFFFF
(1666579625.096957) can0 18FEDF00#84E015FFFBFFFFFF
(1666579625.097140) can0 18F00029#F07DFFFFFFFFFFFF
(1666579625.097515) can0 18FEE000#FFFFFFFF83040000
(1666579625.099238) can0 18FEEF00#FFFFFF6AFFFFFFFF
(1666579625.099442) can0 18FEF200#52000000EF00FFFF
(1666579625.099831) can0 18FEF600#FF0037FFFFFFFFFF
(1666579625.100032) can0 18FEDB00#090BFFFFFFFFFFFF
(1666579625.100416) can0 18FEF000#FFFFFFFFFF0000FF
(1666579625.102563) can0 18FEF100#FF0000C0000000FF
(1666579625.102710) can0 0CF00203#000000FFF7801403
(1666579625.108237) can0 0C010305#FFFFE0FFFF3F3FFF
(1666579625.108415) can0 0CF00400#F07D8E0416FFFF8E
(1666579625.113947) can0 0CF00203#000000FFF7721403
(1666579625.114242) can0 0CF00C03#2304FFFFFFFFFFFF
(1666579625.120029) can0 18F0010B#CFFFF3FFFF0FFFFF
(1666579625.125803) can0 0CF00400#F07D8E0416FFFF8E
(1666579625.125965) can0 18FEBF0B#00007D7D7D7DFFFF
(1666579625.126264) can0 0CF00203#000000FFF7721403
(1666579625.140478) can0 0CF00203#000000FFF77C1403
(1666579625.140628) can0 0CF00400#F07D8E0416FFFF8E
(1666579625.141030) can0 0CF00C03#0704FFFFFFFFFFFF
(1666579625.141232) can0 0CF00300#DF000FFFFFFFFFFF
(1666579625.141514) can0 18F00503#7D00007D4E204E43
(1666579625.143838) can0 18EF0503#FFFFFFFFFF004E4E
(1666579625.144016) can0 18FE4A03#03134CE0FFF1FFFF
(1666579625.150023) can0 0CF00203#000000FFF77C1403
(1666579625.152349) can0 18F00197#FFFFF0FFFFFFFFFF
(1666579625.155598) can0 0C010305#FFFFE0FFFF3F3FFF
(1666579625.155761) can0 0CF00400#F07D8E0416FFFF8E
(1666579625.164448) can0 0CF00203#000000FFF77E1403
(1666579625.164617) can0 0CF00C03#0404FFFFFFFFFFFF
(1666579625.170426) can0 0CF00400#F07D8EF315FFFF8E
(1666579625.176442) can0 0CF00203#000000FFF77E1403
(1666579625.185379) can0 0CF00400#F07D8EF315FFFF8E
(1666579625.185566) can0 0CF00300#DF000FFFFFFFFFFF
(1666579625.185955) can0 18F00029#F07DFFFFFFFFFFFF
(1666579625.188523) can0 18FEE000#FFFFFFFF83040000
(1666579625.188691) can0 18FEF200#52000000EF00FFFF
(1666579625.189084) can0 18FEF000#FFFFFFFFFF0000FF
(1666579625.189290) can0 18FEF100#FF0000C0000000FF
(1666579625.189576) can0 0CF00203#000000FFF78A1403
(1666579625.191660) can0 0CF00C03#1104FFFFFFFFFFFF
(1666579625.200698) can0 0CF00400#F07D8EE215FFFF8E
(1666579625.200866) can0 0CF00203#000000FFF78A1403
(1666579625.203826) can0 0C010305#FFFFE0FFFF3F3FFF
(1666579625.215203) can0 0CF00203#000000FFF7761403
(1666579625.215359) can0 0CF00400#F07D8EDA15FFFF8E
(1666579625.215661) can0 0CF00C03#3B04FFFFFFFFFFFF
(1666579625.221450) can0 18F0010B#CFFFF3FFFF0FFFFF
(1666579625.224442) can0 18FEBF0B#00007D7D7D7DFFFF
(1666579625.227648) can0 0CF00203#000000FFF7761403
(1666579625.231198) can0 0CF00400#F07D8EDA15FFFF8E
(1666579625.239729) can0 0CF00203#000000FFF76E1403
(1666579625.239918) can0 0CF00C03#4B04FFFFFFFFFFFF
(1666579625.240190) can0 18F00503#7D00007D4E204E43
(1666579625.243036) can0 18EF0503#FFFFFFFFFF004E4E
(1666579625.243263) can0 18FE4A03#03134CE0FFF1FFFF
(1666579625.243648) can0 0CF00400#F07D8EEB15FFFF8E
(1666579625.245323) can0 0CF00300#DF000FFFFFFFFFFF
(1666579625.251429) can0 0C010305#FFFFE0FFFF3F3FFF
(1666579625.251616) can0 0CF00203#000000FFF76E1403
(1666579625.254622) can0 18F00197#FFFFF0FFFFFFFFFF
(1666579625.258146) can0 0CF00400#F07D8EEB15FFFF8E
(1666579625.263598) can0 0CF00203#000000FFF75E1403
(1666579625.263760) can0 0CF00C03#5E04FFFFFFFFFFFF
(1666579625.272702) can0 0CF00400#F07D8EFB15FFFF8E
(1666579625.276048) can0 0CF00203#000000FFF75E1403
(1666579625.290085) can0 0CF00203#000000FFF76C1403
(1666579625.290341) can0 0CF00400#F07D8EFB15FFFF8E
(1666579625.290678) can0 0CF00C03#3B04FFFFFFFFFFFF
(1666579625.290964) can0 0CF00300#DF000FFFFFFFFFFF
(1666579625.291259) can0 18F00029#F07DFFFFFFFFFFFF
(1666579625.293236) can0 18FEE000#FFFFFFFF83040000
(1666579625.293516) can0 18FEF200#52000000EF00FFFF
(1666579625.293799) can0 18FEF000#FFFFFFFFFF0000FF
(1666579625.294107) can0 18FEF100#FF0000C0000000FF
(1666579625.299586) can0 0C010305#FFFFE0FFFF3F3FFF
(1666579625.303172) can0 0CF00203#000000FFF76C1403
(1666579625.303349) can0 0CF00400#F07D8EFB15FFFF8E
(1666579625.314273) can0 0CF00203#000000FFF77C1403
(1666579625.314397) can0 0CF00C03#1804FFFFFFFFFFFF
(1666579625.317498) can0 18FFC81A#1F0503807D91FFFF
(1666579625.320826) can0 0CF00400#F07D8EFB15FFFF8E
(1666579625.320993) can0 18F0010B#CFFFF3FFFF0FFFFF
(1666579625.324195) can0 18FEBF0B#00007D7D7D7DFFFF
(1666579625.326265) can0 0CF00203#000000FFF77C1403
(1666579625.332691) can0 0CF00400#F07D8EEB15FFFF8E
(1666579625.332890) can0 0CF00300#DF000FFFFFFFFFFF
(1666579625.335126) can0 18FEDF00#84E015FFFBFFFFFF
(1666579625.338324) can0 0CF00203#000000FFF7681403
(1666579625.338492) can0 0CF00C03#1104FFFFFFFFFFFF
(1666579625.341501) can0 18F00503#7D00007D4E204E43
(1666579625.341687) can0 18EF0503#FFFFFFFFFF004E4E
(1666579625.341972) can0 18FE4A03#03134CE0FFF1FFFF
(1666579625.344597) can0 0C010305#FFFFE0FFFF3F3FFF
(1666579625.351202) can0 0CF00400#F07D8EEB15FFFF8E
(1666579625.351341) can0 0CF00203#000000FFF7681403
(1666579625.353475) can0 18F00197#FFFFF0FFFFFFFFFF
(1666579625.365377) can0 0CF00203#000000FFF75C1403
(1666579625.365535) can0 0CF00400#F07D8EE215FFFF8E
(1666579625.365944) can0 0CF00C03#1404FFFFFFFFFFFF
(1666579625.377763) can0 0CF00203#000000FFF75C1403
(1666579625.378009) can0 0CF00400#F07D8EE215FFFF8E
(1666579625.389351) can0 0CF00203#000000FFF74A1403
(1666579625.389570) can0 0CF00C03#3804FFFFFFFFFFFF
(1666579625.392929) can0 0CF00400#F07D8ED615FFFF8E
(1666579625.395652) can0 0C010305#FFFFE0FFFF3F3FFF
(1666579625.395866) can0 0CF00300#DF000FFFFFFFFFFF
(1666579625.396250) can0 18F00029#F07DFFFFFFFFFFFF
(1666579625.398721) can0 18FEE000#FFFFFFFF83040000
(1666579625.398985) can0 18FEF200#52000000EF00FFFF
(1666579625.399381) can0 18FEF000#FFFFFFFFFF0000FF
(1666579625.399591) can0 18FEF100#FF0000C0000000FF
(1666579625.402150) can0 0CF00203#000000FFF74A1403
(1666579625.407763) can0 0CF00400#F07D8ED615FFFF8E
(1666579625.413410) can0 0CF00203#000000FFF7521403
(1666579625.413745) can0 0CF00C03#5504FFFFFFFFFFFF
(1666579625.419683) can0 18F0010B#CFFFF3FFFF0FFFFF
(1666579625.423273) can0 0CF00400#F07D8EEB15FFFF8E
(1666579625.426077) can0 18FEBF0B#00007D7D7D7DFFFF
(1666579625.426234) can0 0CF00203#000000FFF7521403
(1666579625.437404) can0 0CF00400#F07D8EEB15FFFF8E
(1666579625.440697) can0 0CF00203#000000FFF7561403
(1666579625.440891) can0 0CF00300#DF0010FFFFFFFFFF
(1666579625.441282) can0 0CF00C03#5B04FFFFFFFFFFFF
(1666579625.441464) can0 18F00503#7D00007D4E204E43
(1666579625.443967) can0 18EF0503#FFFFFFFFFF004E4E
(1666579625.444133) can0 0C010305#FFFFE0FFFF3F3FFF
(1666579625.444550) can0 18FE4A03#03134CE0FFF1FFFF
(1666579625.452270) can0 0CF00203#000000FFF7561403
(1666579625.452433) can0 18F00197#FFFFF0FFFFFFFFFF
(1666579625.455373) can0 0CF00400#F07D8EEB15FFFF8E
(1666579625.464424) can0 0CF00203#000000FFF7661403
(1666579625.464593) can0 0CF00C03#4B04FFFFFFFFFFFF
(1666579625.468452) can0 0CF00400#F07D8EEB15FFFF8E
(1666579625.476343) can0 0CF00203#000000FFF7661403
(1666579625.485327) can0 0CF00400#F07D8EE615FFFF8E
(1666579625.485588) can0 0CF00300#DF000FFFFFFFFFFF
(1666579625.485897) can0 18F00029#F07DFFFFFFFFFFFF
(1666579625.486173) can0 18FEE000#FFFFFFFF83040000
(1666579625.488573) can0 18FEF200#52000000EF00FFFF
(1666579625.488740) can0 18FEF000#FFFFFFFFFF0000FF
(1666579625.489167) can0 18FEF100#FF0000C0000000FF
(1666579625.489340) can0 0CF00203#000000FFF7581403
(1666579625.491702) can0 0C010305#FFFFE0FFFF3F3FFF
(1666579625.491897) can0 0CF00C03#4504FFFFFFFFFFFF
(1666579625.497825) can0 0CF00400#F07D8EDA15FFFF8E
(1666579625.500932) can0 0CF00203#000000FFF7581403
(1666579625.512226) can0 18ECFF00#20220005FFE3FE00
(1666579625.515477) can0 0CF00203#000000FFF74C1403
(1666579625.515639) can0 0CF00400#F07D8EDA15FFFF8E
(1666579625.516036) can0 0CF00C03#3104FFFFFFFFFFFF
(1666579625.518274) can0 18FEF71A#FFFF34021A01FFFF
(1666579625.521197) can0 18F0010B#CFFFF3FFFF0FFFFF
(1666579625.527154) can0 18FEBF0B#00007D7D7D7DFFFF
(1666579625.527334) can0 0CF00203#000000FFF74C1403
(1666579625.527720) can0 0CF00400#F07D8ECD15FFFF8E
(1666579625.539258) can0 0C010305#FFFFE0FFFF3F3FFF
(1666579625.539441) can0 0CF00203#000000FFF7461403
(1666579625.539739) can0 0CF00C03#1404FFFFFFFFFFFF
(1666579625.539996) can0 18F00503#7D00007D4E204E43
(1666579625.542647) can0 18EF0503#FFFFFFFFFF004E4E
(1666579625.542915) can0 18FE4A03#03134CE0FFF1FFFF
(1666579625.543313) can0 0CF00400#F07D8ECD15FFFF8E
(1666579625.543485) can0 0CF00300#DF000FFFFFFFFFFF
(1666579625.551279) can0 0CF00203#000000FFF7461403
(1666579625.554776) can0 18F00197#FFFFF0FFFFFFFFFF
(1666579625.557939) can0 0CF00400#F07D8EC515FFFF8E
(1666579625.563799) can0 0CF00203#000000FFF74E1403
(1666579625.563992) can0 0CF00C03#1104FFFFFFFFFFFF
(1666579625.573103) can0 18EBFF00#01E015AB4051C600
(1666579625.573283) can0 0CF00400#F07D8EC515FFFF8E
(1666579625.575366) can0 0CF00203#000000FFF74E1403
(1666579625.587321) can0 0C010305#FFFFE0FFFF3F3FFF
(1666579625.590879) can0 0CF00203#000000FFF7501403
(1666579625.591084) can0 0CF00400#F07D8FEF15FFFF8F
(1666579625.591349) can0 0CF00C03#2A04FFFFFFFFFFFF
(1666579625.591609) can0 0CF00300#DF0010FFFFFFFFFF
(1666579625.591994) can0 18FEDF00#84E015FFFBFFFFFF
(1666579625.594224) can0 18F00029#F07DFFFFFFFFFFFF
(1666579625.594392) can0 18FEE000#FFFFFFFF83040000
(1666579625.594697) can0 18FEEE00#52FFFFFFFFFFFFFF
(1666579625.595089) can0 18FEEF00#FFFFFF6AFFFFFFFF
(1666579625.595251) can0 18FEF200#52000000EF00FFFF
(1666579625.595515) can0 18FEF700#FFFFFFFF2B02FFFF
(1666579625.596910) can0 18FEF600#FF0037FFFFFFFFFF
(1666579625.597084) can0 18FEDB00#FF0AFFFFFFFFFFFF
(1666579625.597468) can0 18FEF000#FFFFFFFFFF0000FF
(1666579625.597708) can0 18FEF100#FF0000C0000000FF
(1666579625.599838) can0 18FEE400#FF3FFFFFFFFFFFFF
(1666579625.600021) can0 18FEC100#DD700000FFFFFFFF
(1666579625.600409) can0 18E0FF00#00FFFFFFFFFFFFFF
(1666579625.603072) can0 0CF00203#000000FFF7501403
(1666579625.603251) can0 0CF00400#F07D8FEF15FFFF8F
(1666579625.614222) can0 0CF00203#000000FFF7461403
(1666579625.614417) can0 0CF00C03#6104FFFFFFFFFFFF
(1666579625.617578) can0 0CF00400#F07D8EFB15FFFF8E
(1666579625.621055) can0 18F0010B#CFFFF3FFFF0FFFFF
(1666579625.626582) can0 0CF00203#000000FFF7461403
(1666579625.626743) can0 18FEBF0B#00007D7D7D7DFFFF
(1666579625.632878) can0 0C010305#FFFFE0FFFF3F3FFF
(1666579625.633076) can0 18EBFF00#022DD70032D7A041
(1666579625.636004) can0 0CF00400#F07D8EFB15FFFF8E
(1666579625.636176) can0 0CF00300#DF0010FFFFFFFFFF
(1666579625.639504) can0 0CF00203#000000FFF73E1403
(1666579625.639690) can0 0CF00C03#6D04FFFFFFFFFFFF
(1666579625.640077) can0 18F00503#7D00007D4E204E43
(1666579625.641685) can0 18EF0503#FFFFFFFFFF004E4E
(1666579625.641858) can0 18FE4A03#03134CE0FFF1FFFF
(1666579625.642161) can0 18FD9503#CCFFFF00FFFFFFFF
(1666579625.644571) can0 18FEF803#FFFFFFFF8024FBDE
(1666579625.647833) can0 0CF00400#F07D8E0016FFFF8E
(1666579625.651267) can0 0CF00203#000000FFF73E1403
(1666579625.653363) can0 18F00197#FFFFF0FFFFFFFFFF
(1666579625.665849) can0 0CF00203#000000FFF73E1403
(1666579625.666016) can0 0CF00400#F07D8E0016FFFF8E
(1666579625.666413) can0 0CF00C03#6A04FFFFFFFFFFFF
(1666579625.675104) can0 0CF00203#000000FFF73E1403
(1666579625.678345) can0 0CF00400#F07D8EF315FFFF8E
(1666579625.683443) can0 0C010305#FFFFE0FFFF3F3FFF
(1666579625.689600) can0 0CF00203#000000FFF7541403
(1666579625.689765) can0 0CF00C03#5504FFFFFFFFFFFF
(1666579625.692895) can0 18EBFF00#03D28057FFFF7505
(1666579625.695828) can0 0CF00400#F07D8EF315FFFF8E
(1666579625.696099) can0 0CF00300#DF000FFFFFFFFFFF
(1666579625.696483) can0 18F00029#F07DFFFFFFFFFFFF
(1666579625.696684) can0 18FEE000#FFFFFFFF83040000
(1666579625.696966) can0 18FEF200#52000000EF00FFFF
(1666579625.697284) can0 18FEF000#FFFFFFFFFF0000FF
(1666579625.697567) can0 18FEF100#FF0000C0000000FF
(1666579625.702324) can0 0CF00203#000000FFF7541403
(1666579625.707328) can0 0CF00400#F07D8EF315FFFF8E
(1666579625.713616) can0 0CF00203#000000FFF75A1403
(1666579625.713793) can0 0CF00C03#3804FFFFFFFFFFFF
(1666579625.717076) can0 18FEA71A#FFFFFF39FFFFFFFF
(1666579625.722475) can0 18F0010B#CFFFF3FFFF0FFFFF
(1666579625.722613) can0 0CF00400#F07D8EF315FFFF8E
(1666579625.725800) can0 0CF00203#000000FFF75A1403
(1666579625.729202) can0 18FEBF0B#00007D7D7D7DFFFF
(1666579625.731473) can0 0C010305#FFFFE0FFFF3F3FFF
(1666579625.737122) can0 0CF00400#F07D8EF715FFFF8E
(1666579625.740337) can0 0CF00300#DF000FFFFFFFFFFF
(1666579625.740510) can0 0CF00203#000000FFF7721403
(1666579625.740902) can0 0CF00C03#1804FFFFFFFFFFFF
(1666579625.741086) can0 18F00503#7D00007D4E204E43
(1666579625.741475) can0 18EF0503#FFFFFFFFFF004E4E
(1666579625.743712) can0 18FE4A03#03134CE0FFF1FFFF
(1666579625.752722) can0 0CF00203#000000FFF7721403
(1666579625.752918) can0 18EBFF00#04C05DFAFFFFFFFF
(1666579625.753186) can0 0CF00400#F07D8EF715FFFF8E
(1666579625.756029) can0 18F00197#FFFFF0FFFFFFFFFF
(1666579625.764392) can0 0CF00203#000000FFF7661403
(1666579625.764559) can0 0CF00C03#1804FFFFFFFFFFFF
(1666579625.768204) can0 0CF00400#F07D8E0816FFFF8E
(1666579625.776452) can0 0CF00203#000000FFF7661403
(1666579625.776611) can0 0C010305#FFFFE0FFFF3F3FFF
(1666579625.785899) can0 0CF00400#F07D8E0816FFFF8E
(1666579625.786082) can0 0CF00300#DF000FFFFFFFFFFF
(1666579625.786391) can0 18F00029#F07DFFFFFFFFFFFF
(1666579625.786672) can0 18FEE000#FFFFFFFF83040000
(1666579625.786956) can0 18FEF200#52000000EF00FFFF
(1666579625.787364) can0 18FEF000#FFFFFFFFFF0000FF
(1666579625.787540) can0 18FEF100#FF0000C0000000FF
(1666579625.789360) can0 0CF00203#000000FFF7641403
(1666579625.789557) can0 0CF00C03#3804FFFFFFFFFFFF
(1666579625.797995) can0 0CF00400#F07D8E0416FFFF8E
(1666579625.800970) can0 0CF00203#000000FFF7641403
(1666579625.812226) can0 18EBFF00#05FFFF6900FFFFFF
(1666579625.812417) can0 0CF00400#F07D8EFB15FFFF8E
(1666579625.815054) can0 0CF00203#000000FFF76A1403
(1666579625.815234) can0 0CF00C03#4804FFFFFFFFFFFF
(1666579625.822128) can0 18F0010B#CFFFF3FFFF0FFFFF
(1666579625.827267) can0 0C010305#FFFFE0FFFF3F3FFF
(1666579625.827440) can0 0CF00203#000000FFF76A1403
(1666579625.827848) can0 18FEBF0B#00007D7D7D7DFFFF
(1666579625.828073) can0 0CF00400#F07D8EFB15FFFF8E
(1666579625.839296) can0 0CF00203#000000FFF7781403
(1666579625.839484) can0 0CF00C03#4504FFFFFFFFFFFF
(1666579625.839760) can0 18F00503#7D00007D4E204E43
(1666579625.842371) can0 18EF0503#FFFFFFFFFF004E4E
(1666579625.842559) can0 18FE4A03#03134CE0FFF1FFFF
(1666579625.842950) can0 0CF00400#F07D8EE615FFFF8E
(1666579625.845504) can0 0CF00300#DF000FFFFFFFFFFF
(1666579625.845717) can0 18FEDF00#84E015FFFBFFFFFF
(1666579625.851352) can0 0CF00203#000000FFF7781403
(1666579625.854541) can0 18F00197#FFFFF0FFFFFFFFFF
(1666579625.858041) can0 0CF00400#F07D8EE615FFFF8E
(1666579625.863193) can0 0CF00203#000000FFF7721403
(1666579625.863385) can0 0CF00C03#4E04FFFFFFFFFFFF
(1666579625.872426) can0 0CF00400#F07D8EDA15FFFF8E
(1666579625.875928) can0 18FECA00#00FFFFFFFFFFFFFF
(1666579625.876114) can0 0C010305#FFFFE0FFFF3F3FFF
(1666579625.876504) can0 0CF00203#000000FFF7721403
(1666579625.887309) can0 18ECFF29#20130003FFE1FE00
(1666579625.887632) can0 0CF00400#F07D8EDA15FFFF8E
(1666579625.890955) can0 0CF00203#000000FFF7681403
(1666579625.891165) can0 0CF00C03#4104FFFFFFFFFFFF
(1666579625.891450) can0 0CF00300#DF000FFFFFFFFFFF
(1666579625.891736) can0 18F00029#F07DFFFFFFFFFFFF
(1666579625.892162) can0 18FEE000#FFFFFFFF83040000
(1666579625.892319) can0 18FEF200#52000000EF00FFFF
(1666579625.893808) can0 18FEF000#FFFFFFFFFF0000FF
(1666579625.893990) can0 18FEF100#FF0000C0000000FF
(1666579625.899905) can0 0CF00203#000000FFF7681403
(1666579625.903001) can0 0CF00400#F07D8EC915FFFF8E
(1666579625.914200) can0 0CF00203#000000FFF7561403
(1666579625.914368) can0 0CF00C03#2D04FFFFFFFFFFFF
(1666579625.917701) can0 18FED51A#2E0DFFFFFFFFFFFF
(1666579625.921123) can0 0CF00400#F07D8EC915FFFF8E
(1666579625.921308) can0 0C010305#FFFFE0FFFF3F3FFF
(1666579625.921604) can0 18F0010B#CFFFF3FFFF0FFFFF
(1666579625.926399) can0 0CF00203#000000FFF7561403
(1666579625.929695) can0 18FEBF0B#00007D7D7D7DFFFF
(1666579625.932774) can0 0CF00400#F07D8EF715FFFF8E
(1666579625.932965) can0 0CF00300#DF0010FFFFFFFFFF
(1666579625.939029) can0 0CF00203#000000FFF7461403
(1666579625.939198) can0 0CF00C03#1404FFFFFFFFFFFF
(1666579625.939589) can0 18F00503#7D00007D4E204E43
(1666579625.942299) can0 18EF0503#FFFFFFFFFF004E4E
(1666579625.942485) can0 18FE4A03#03134CE0FFF1FFFF
(1666579625.942758) can0 18FECA03#F3FF00000000FFFF
(1666579625.947246) can0 18EBFF29#011401FFFFFFFFFF
(1666579625.950621) can0 0CF00400#F07D8EF715FFFF8E
(1666579625.950916) can0 0CF00203#000000FFF7461403
(1666579625.954024) can0 18F00197#FFFFF0FFFFFFFFFF
(1666579625.962916) can0 0CF00400#F07D8E0016FFFF8E
(1666579625.963083) can0 0CF00203#000000FFF7581403
(1666579625.963471) can0 0CF00C03#2304FFFFFFFFFFFF
(1666579625.971947) can0 0C010305#FFFFE0FFFF3F3FFF
(1666579625.974994) can0 0CF00203#000000FFF7581403
(1666579625.977215) can0 0CF00400#F07D8E0016FFFF8E
(1666579625.989354) can0 0CF00203#000000FFF7521403
(1666579625.989555) can0 0CF00C03#2D04FFFFFFFFFFFF
(1666579625.992660) can0 0CF00400#F07D8EFB15FFFF8E
(1666579625.996087) can0 0CF00300#DF000FFFFFFFFFFF
(1666579625.996282) can0 18F00029#F07DFFFFFFFFFFFF
(1666579625.996661) can0 18FEE000#FFFFFFFF83040000
(1666579625.996863) can0 18FEF200#52000000EF00FFFF
(1666579625.997242) can0 18FEF000#FFFFFFFFFF0000FF
(1666579625.997442) can0 18FEF100#FF0000C0000000FF
(1666579626.001998) can0 0CF00203#000000FFF7521403
(1666579626.007398) can0 18EBFF29#02FFFFFFFFFFFFFF
(1666579626.007591) can0 0CF00400#F07D8EFB15FFFF8E
(1666579626.013401) can0 0CF00203#000000FFF7601403
(1666579626.013590) can0 0CF00C03#3804FFFFFFFFFFFF
(1666579626.019447) can0 0C010305#FFFFE0FFFF3F3FFF
(1666579626.023096) can0 18F0010B#CFFFF3FFFF0FFFFF
(1666579626.023282) can0 0CF00400#F07D8EE615FFFF8E
(1666579626.025339) can0 0CF00203#000000FFF7601403
(1666579626.028815) can0 18FEBF0B#00007D7D7D7DFFFF
(1666579626.037449) can0 0CF00400#F07D8EE615FFFF8E
(1666579626.037615) can0 0CF00300#DF000FFFFFFFFFFF
(1666579626.041003) can0 0CF00203#000000FFF74E1403
(1666579626.041182) can0 0CF00C03#5804FFFFFFFFFFFF
(1666579626.041559) can0 18F00503#7D00007D4E204E43
(1666579626.041747) can0 18EF0503#FFFFFFFFFF004E4E
(1666579626.042031) can0 18FE4A03#03134CE0FFF1FFFF
(1666579626.052913) can0 0CF00203#000000FFF74E1403
(1666579626.053112) can0 0CF00400#F07D8ED615FFFF8E
(1666579626.053503) can0 18F00197#FFFFF0FFFFFFFFFF
(1666579626.065198) can0 0CF00203#000000FFF7421403
(1666579626.065368) can0 0CF00C03#6104FFFFFFFFFFFF
(1666579626.065648) can0 0C010305#FFFFE0FFFF3F3FFF
(1666579626.067503) can0 18EBFF29#03FFFF2C01FFFFFF
(1666579626.067690) can0 0CF00400#F07D8ED615FFFF8E
(1666579626.076456) can0 0CF00203#000000FFF7421403
(1666579626.082403) can0 0CF00400#F07D8EC515FFFF8E
(1666579626.085974) can0 0CF00300#DF000FFFFFFFFFFF
(1666579626.086134) can0 18FEDF00#84E015FFFBFFFFFF
(1666579626.086439) can0 18F00029#F07DFFFFFFFFFFFF
(1666579626.086829) can0 18FEE000#FFFFFFFF83040000
(1666579626.087029) can0 18FEEF00#FFFFFF6BFFFFFFFF
(1666579626.087404) can0 18FEF200#52000000EF00FFFF
(1666579626.089319) can0 18FEF600#FF0037FFFFFFFFFF
(1666579626.089515) can0 18FEDB00#300AFFFFFFFFFFFF
(1666579626.089800) can0 0CF00203#000000FFF7481403
(1666579626.090083) can0 18FEF000#FFFFFFFFFF0000FF
(1666579626.090391) can0 0CF00C03#4E04FFFFFFFFFFFF
(1666579626.091302) can0 18FEF100#FF0000C0000000FF
(1666579626.097301) can0 0CF00400#F07D8EC515FFFF8E
(1666579626.100243) can0 0CF00203#000000FFF7481403
(1666579626.112229) can0 0CF00400#F07D8EDA15FFFF8E
(1666579626.115419) can0 0CF00203#000000FFF7541403
(1666579626.115683) can0 0CF00C03#2304FFFFFFFFFFFF
(1666579626.116075) can0 0C010305#FFFFE0FFFF3F3FFF
(1666579626.124702) can0 18F0010B#CFFFF3FFFF0FFFFF
(1666579626.127528) can0 0CF00203#000000FFF7541403
(1666579626.127677) can0 0CF00400#F07D8EDA15FFFF8E
(1666579626.127972) can0 18FEBF0B#00007D7D7D7DFFFF
(1666579626.139625) can0 0CF00203#000000FFF73E1403
(1666579626.139818) can0 0CF00C03#1804FFFFFFFFFFFF
(1666579626.140091) can0 18F00503#7D00007D4E204E43
(1666579626.142477) can0 18EF0503#FFFFFFFFFF004E4E
(1666579626.142666) can0 18FE4A03#03134CE0FFF1FFFF
(1666579626.142915) can0 0CF00400#F07D8EDA15FFFF8E
(1666579626.143315) can0 0CF00300#DF0010FFFFFFFFFF
(1666579626.151452) can0 0CF00203#000000FFF73E1403
(1666579626.154950) can0 18F00197#FFFFF0FFFFFFFFFF
(1666579626.157780) can0 0CF00400#F07D8ED615FFFF8E
(1666579626.163528) can0 0C010305#FFFFE0FFFF3F3FFF
(1666579626.163693) can0 0CF00203#000000FFF73C1403
(1666579626.164071) can0 0CF00C03#1404FFFFFFFFFFFF
(1666579626.172203) can0 0CF00400#F07D8ED615FFFF8E
(1666579626.175750) can0 0CF00203#000000FFF73C1403
(1666579626.187738) can0 0CF00400#F07D8EC515FFFF8E
(1666579626.187932) can0 0CF00300#DF0010FFFFFFFFFF
(1666579626.188222) can0 0CF00203#000000FFF72A1403
(1666579626.190596) can0 18F00029#F07DFFFFFFFFFFFF
(1666579626.190791) can0 0CF00C03#3104FFFFFFFFFFFF
(1666579626.191172) can0 18FEE000#FFFFFFFF83040000
(1666579626.191367) can0 18FEF200#50000000EF00FFFF
(1666579626.191745) can0 18FEF000#FFFFFFFFFF0000FF
(1666579626.194197) can0 18FEF100#FF0000C0000000FF
(1666579626.202703) can0 0CF00203#000000FFF72A1403
(1666579626.202864) can0 0CF00400#F07D8EC515FFFF8E
(1666579626.209253) can0 0C010305#FFFFE0FFFF3F3FFF
(1666579626.214123) can0 0CF00203#000000FFF7281403
(1666579626.214307) can0 0CF00C03#5804FFFFFFFFFFFF
(1666579626.217346) can0 0CF00400#F07D8EBD15FFFF8E
(1666579626.223304) can0 18F0010B#CFFFF3FFFF0FFFFF
(1666579626.226752) can0 0CF00203#000000FFF7281403
(1666579626.230241) can0 18FEBF0B#00007D7D7D7DFFFF
(1666579626.232476) can0 0CF00400#F07D8EBD15FFFF8E
(1666579626.235592) can0 0CF00300#DF0010FFFFFFFFFF
(1666579626.238731) can0 0CF00203#000000FFF7401403
(1666579626.238994) can0 0CF00C03#5504FFFFFFFFFFFF
(1666579626.239297) can0 18F00503#7D00007D4E204E43
(1666579626.242146) can0 18EF0503#FFFFFFFFFF004E4E
(1666579626.242333) can0 18FE4A03#03134CE0FFF1FFFF
(1666579626.247604) can0 0CF00400#F07D8FB915FFFF8F
(1666579626.250928) can0 0CF00203#000000FFF7401403
(1666579626.253849) can0 18F00197#FFFFF0FFFFFFFFFF
(1666579626.259305) can0 0C010305#FFFFE0FFFF3F3FFF
(1666579626.262776) can0 0CF00400#F07D8FB915FFFF8F
(1666579626.262941) can0 0CF00203#000000FFF7381403
(1666579626.263330) can0 0CF00C03#5B04FFFFFFFFFFFF
(1666579626.274878) can0 0CF00203#000000FFF7381403
(1666579626.277120) can0 0CF00400#F07D8FDE15FFFF8F
(1666579626.289560) can0 0CF00203#000000FFF73A1403
(1666579626.289867) can0 0CF00C03#5804FFFFFFFFFFFF
(1666579626.292783) can0 0CF00400#F07D8FDE15FFFF8F
(1666579626.293085) can0 0CF00300#DF0010FFFFFFFFFF
(1666579626.295081) can0 18F00029#F07DFFFFFFFFFFFF
(1666579626.295326) can0 18FEE000#FFFFFFFF83040000
(1666579626.295600) can0 18FEF200#50000000EF00FFFF
(1666579626.295909) can0 18FEF000#FFFFFFFFFF0000FF
(1666579626.299080) can0 18FEF100#FF0000C0000000FF
(1666579626.302105) can0 0CF00203#000000FFF73A1403
(1666579626.307281) can0 0C010305#FFFFE0FFFF3F3FFF
(1666579626.307559) can0 0CF00400#F07D8EEB15FFFF8E
(1666579626.313670) can0 0CF00203#000000FFF72E1403
(1666579626.313842) can0 0CF00C03#4804FFFFFFFFFFFF
(1666579626.319706) can0 18FFC81A#1F0503807D91FFFF
(1666579626.323247) can0 0CF00400#F07D8EEB15FFFF8E
(1666579626.323441) can0 18F0010B#CFFFF3FFFF0FFFFF
(1666579626.325261) can0 0CF00203#000000FFF72E1403
(1666579626.327992) can0 18FEBF0B#00007D7D7D7DFFFF
(1666579626.337253) can0 0CF00400#F07D8EEF15FFFF8E
(1666579626.337441) can0 0CF00300#DF0010FFFFFFFFFF
(1666579626.337726) can0 18FEDF00#84E015FFFBFFFFFF
(1666579626.340759) can0 0CF00203#000000FFF73E1403
(1666579626.340935) can0 0CF00C03#2304FFFFFFFFFFFF
(1666579626.341319) can0 18F00503#7D00007D4E204E43
(1666579626.341509) can0 18EF0503#FFFFFFFFFF004E4E
(1666579626.341799) can0 18FE4A03#03134CE0FFF1FFFF
(1666579626.352301) can0 0CF00203#000000FFF73E1403
(1666579626.352459) can0 0CF00400#F07D8EEF15FFFF8E
(1666579626.352751) can0 18F00197#FFFFF0FFFFFFFFFF
(1666579626.355942) can0 0C010305#FFFFE0FFFF3F3FFF
(1666579626.364065) can0 0CF00203#000000FFF7441403
(1666579626.364252) can0 0CF00C03#1B04FFFFFFFFFFFF
(1666579626.367172) can0 0CF00400#F07D8EDE15FFFF8E
(1666579626.377326) can0 0CF00203#000000FFF7441403
(1666579626.382564) can0 0CF00400#F07D8EDE15FFFF8E
(1666579626.382792) can0 0CF00300#DF000FFFFFFFFFFF
(1666579626.386153) can0 18F00029#F07DFFFFFFFFFFFF
(1666579626.386333) can0 18FEE000#FFFFFFFF83040000
(1666579626.386625) can0 18FEF200#50000000EF00FFFF
(1666579626.386930) can0 18FEF000#FFFFFFFFFF0000FF
(1666579626.387192) can0 18FEF100#FF0000C0000000FF
(1666579626.389513) can0 0CF00203#000000FFF7561403
(1666579626.389691) can0 0CF00C03#2A04FFFFFFFFFFFF
(1666579626.397445) can0 0CF00400#F07D8ED115FFFF8E
(1666579626.400724) can0 0CF00203#000000FFF7561403
(1666579626.403703) can0 0C010305#FFFFE0FFFF3F3FFF
(1666579626.412403) can0 0CF00400#F07D8ED115FFFF8E
(1666579626.415801) can0 0CF00203#000000FFF7481403
(1666579626.415977) can0 0CF00C03#4E04FFFFFFFFFFFF
(1666579626.425255) can0 18F0010B#CFFFF3FFFF0FFFFF
(1666579626.425417) can0 0CF00203#000000FFF7481403
(1666579626.427552) can0 0CF00400#F07D8ECD15FFFF8E
(1666579626.430903) can0 18FEBF0B#00007D7D7D7DFFFF
(1666579626.440044) can0 0CF00203#000000FFF7461403
(1666579626.440209) can0 0CF00C03#5B04FFFFFFFFFFFF
(1666579626.440595) can0 18F00503#7D00007D4E204E43
(1666579626.440791) can0 18EF0503#FFFFFFFFFF004E4E
(1666579626.441170) can0 18FE4A03#03134CE0FFF1FFFF
(1666579626.443529) can0 0CF00400#F07D8EE615FFFF8E
(1666579626.443710) can0 0CF00300#DF0010FFFFFFFFFF
(1666579626.451427) can0 0C010305#FFFFE0FFFF3F3FFF
(1666579626.451596) can0 0CF00203#000000FFF7461403
(1666579626.454453) can0 18F00197#FFFFF0FFFFFFFFFF
(1666579626.457800) can0 0CF00400#F07D8EE615FFFF8E
(1666579626.464152) can0 0CF00203#000000FFF7401403
(1666579626.464333) can0 0CF00C03#6404FFFFFFFFFFFF
(1666579626.472628) can0 0CF00400#F07D8EE215FFFF8E
(1666579626.475422) can0 0CF00203#000000FFF7401403
(1666579626.487198) can0 0CF00400#F07D8EE215FFFF8E
(1666579626.487367) can0 0CF00300#DF000FFFFFFFFFFF
(1666579626.487758) can0 18F00029#F07DFFFFFFFFFFFF
(1666579626.490221) can0 0CF00203#000000FFF7521403
(1666579626.490417) can0 18FEE000#FFFFFFFF83040000
(1666579626.490808) can0 0CF00C03#4804FFFFFFFFFFFF
(1666579626.491008) can0 18FEF200#50000000EF00FFFF
(1666579626.491398) can0 18FEF000#FFFFFFFFFF0000FF
(1666579626.494247) can0 18FEF100#FF0000C0000000FF
(1666579626.496215) can0 0C010305#FFFFE0FFFF3F3FFF
(1666579626.502197) can0 0CF00203#000000FFF7521403
(1666579626.502345) can0 0CF00400#F07D8EE215FFFF8E
(1666579626.514078) can0 0CF00203#000000FFF7681403
(1666579626.514258) can0 0CF00C03#1804FFFFFFFFFFFF
(1666579626.517080) can0 0CF00400#F07D8EE215FFFF8E
(1666579626.520481) can0 18FEF71A#FFFF34021A01FFFF
(1666579626.523971) can0 18F0010B#CFFFF3FFFF0FFFFF
(1666579626.526278) can0 0CF00203#000000FFF7681403
(1666579626.529920) can0 18FEBF0B#00007D7D7D7DFFFF
(1666579626.532719) can0 0CF00400#F07D8EDA15FFFF8E
(1666579626.532916) can0 0CF00300#DF000FFFFFFFFFFF
(1666579626.538216) can0 0CF00203#000000FFF75A1403
(1666579626.538498) can0 0CF00C03#1104FFFFFFFFFFFF
(1666579626.541424) can0 18F00503#7D00007D4E204E43
(1666579626.541590) can0 18EF0503#FFFFFFFFFF004E4E
(1666579626.541861) can0 18FE4A03#03134CE0FFF1FFFF
(1666579626.547267) can0 0CF00400#F07D8EDA15FFFF8E
(1666579626.547441) can0 0C010305#FFFFE0FFFF3F3FFF
(1666579626.550351) can0 0CF00203#000000FFF75A1403
(1666579626.554072) can0 18F00197#FFFFF0FFFFFFFFFF
(1666579626.562538) can0 0CF00400#F07D8EC915FFFF8E
(1666579626.565671) can0 0CF00203#000000FFF7521403
(1666579626.565831) can0 0CF00C03#0B04FFFFFFFFFFFF
(1666579626.577324) can0 0CF00203#000000FFF7521403
(1666579626.577602) can0 0CF00400#F07D8EC915FFFF8E
(1666579626.589484) can0 0CF00203#000000FFF73C1403
(1666579626.589683) can0 0CF00C03#3404FFFFFFFFFFFF
(1666579626.592599) can0 0CF00400#F07D8EC515FFFF8E
(1666579626.595563) can0 0CF00300#DF0010FFFFFFFFFF
(1666579626.595753) can0 0C010305#FFFFE0FFFF3F3FFF
(1666579626.596112) can0 18FEDF00#84E015FFFBFFFFFF
(1666579626.596449) can0 18F00029#F07DFFFFFFFFFFFF
(1666579626.596603) can0 18FEE000#FFFFFFFF83040000
(1666579626.598590) can0 18FEEE00#52FFFFFFFFFFFFFF
(1666579626.599002) can0 18FEEF00#FFFFFF6AFFFFFFFF
(1666579626.599184) can0 18FEF200#50000000EF00FFFF
(1666579626.599554) can0 18FEF700#FFFFFFFF2B02FFFF
(1666579626.599787) can0 18FEC000#20188AFFFF20F37D
(1666579626.601730) can0 18FEF600#FF0037FFFFFFFFFF
(1666579626.601897) can0 18FEDB00#830AFFFFFFFFFFFF
(1666579626.602238) can0 18FEF000#FFFFFFFFFF0000FF
(1666579626.602495) can0 0CF00203#000000FFF73C1403
(1666579626.602857) can0 18FEF100#FF0000C0000000FF
(1666579626.604821) can0 18FECA00#00FFFFFFFFFFFFFF
(1666579626.604994) can0 18FEE400#FF3FFFFFFFFFFFFF
(1666579626.605366) can0 18FEC100#DD700000FFFFFFFF
(1666579626.607888) can0 18E0FF00#00FFFFFFFFFFFFFF
(1666579626.608088) can0 0CF00400#F07D8EC515FFFF8E
(1666579626.613610) can0 0CF00203#000000FFF7441403
(1666579626.613833) can0 0CF00C03#5504FFFFFFFFFFFF
(1666579626.622420) can0 0CF00400#F07D8EDA15FFFF8E
(1666579626.625523) can0 18F0010B#CFFFF3FFFF0FFFFF
(1666579626.625673) can0 0CF00203#000000FFF7441403
(1666579626.631627) can0 18FEBF0B#00007D7D7D7DFFFF
(1666579626.637798) can0 0CF00400#F07D8EDA15FFFF8E
(1666579626.637986) can0 0CF00300#DF0010FFFFFFFFFF
(1666579626.640823) can0 0CF00203#000000FFF7441403
(1666579626.640989) can0 0CF00C03#6A04FFFFFFFFFFFF
(1666579626.641359) can0 0C010305#FFFFE0FFFF3F3FFF
(1666579626.641563) can0 18F00503#7D00007D4E204E43
(1666579626.643990) can0 18EF0503#FFFFFFFFFF004E4E
(1666579626.644188) can0 18FE4A03#03134CE0FFF1FFFF
(1666579626.644479) can0 18FD9503#CCFFFF00FFFFFFFF
(1666579626.644754) can0 18FEF803#FFFFFFFF8024FBDE
(1666579626.652455) can0 0CF00203#000000FFF7441403
(1666579626.652617) can0 0CF00400#F07D8EEF15FFFF8E
(1666579626.653004) can0 18F00197#FFFFF0FFFFFFFFFF
(1666579626.664328) can0 0CF00203#000000FFF75E1403
(1666579626.664491) can0 0CF00C03#5504FFFFFFFFFFFF
(1666579626.667608) can0 0CF00400#F07D8EEF15FFFF8E
(1666579626.676598) can0 0CF00203#000000FFF75E1403
(1666579626.682282) can0 0CF00400#F07D8EEB15FFFF8E
(1666579626.682483) can0 0CF00300#DF0010FFFFFFFFFF
(1666579626.682771) can0 18F00029#F07DFFFFFFFFFFFF
(1666579626.685476) can0 18FEE000#FFFFFFFF83040000
(1666579626.685665) can0 18FEF200#52000000EF00FFFF
(1666579626.685949) can0 18FEF000#FFFFFFFFFF0000FF
(1666579626.686233) can0 18FEF100#FF0000C0000000FF
(1666579626.688195) can0 0CF00203#000000FFF7541403
(1666579626.691811) can0 0CF00C03#3E04FFFFFFFFFFFF
(1666579626.691986) can0 0C010305#FFFFE0FFFF3F3FFF
(1666579626.694920) can0 0CF00400#F07D8EEB15FFFF8E
(1666579626.700702) can0 0CF00203#000000FFF7541403
(1666579626.710199) can0 0CF00400#F07D8EDA15FFFF8E
(1666579626.715302) can0 0CF00203#000000FFF7521403
(1666579626.715467) can0 0CF00C03#2304FFFFFFFFFFFF
(1666579626.718099) can0 18FEA71A#FFFFFF39FFFFFFFF
(1666579626.724319) can0 18F0010B#CFFFF3FFFF0FFFFF
(1666579626.728089) can0 0CF00203#000000FFF7521403
(1666579626.728378) can0 0CF00400#F07D8EDA15FFFF8E
(1666579626.730247) can0 18FEBF0B#00007D7D7D7DFFFF
(1666579626.739460) can0 0C010305#FFFFE0FFFF3F3FFF
(1666579626.739553) can0 0CF00203#000000FFF74C1403
(1666579626.739984) can0 0CF00C03#1104FFFFFFFFFFFF
(1666579626.742702) can0 18F00503#7D00007D4E204E43
(1666579626.742889) can0 18EF0503#FFFFFFFFFF004E4E
(1666579626.743172) can0 0CF00400#F07D8ECD15FFFF8E
(1666579626.743471) can0 18FE4A03#03134CE0FFF1FFFF
(1666579626.743747) can0 0CF00300#DF000FFFFFFFFFFF
(1666579626.751562) can0 0CF00203#000000FFF74C1403
(1666579626.755273) can0 18F00197#FFFFF0FFFFFFFFFF
(1666579626.755442) can0 0CF00400#F07D8ED615FFFF8E
(1666579626.763725) can0 0CF00203#000000FFF75C1403
(1666579626.763893) can0 0CF00C03#1104FFFFFFFFFFFF
(1666579626.772800) can0 0CF00400#F07D8ED615FFFF8E
(1666579626.775922) can0 0CF00203#000000FFF75C1403
(1666579626.784205) can0 0C010305#FFFFE0FFFF3F3FFF
(1666579626.787726) can0 0CF00400#F07D8E0016FFFF8E
(1666579626.787891) can0 0CF00300#DF0010FFFFFFFFFF
(1666579626.788283) can0 18F00029#F07DFFFFFFFFFFFF
(1666579626.791124) can0 18FEE000#FFFFFFFF83040000
(1666579626.791386) can0 0CF00203#000000FFF7621403
(1666579626.791685) can0 18FEF200#52000000EF00FFFF
(1666579626.791962) can0 0CF00C03#2A04FFFFFFFFFFFF
(1666579626.792347) can0 18FEF000#FFFFFFFFFF0000FF
(1666579626.792539) can0 18FEF100#FF0000C0000000FF
(1666579626.800230) can0 0CF00203#000000FFF7621403
(1666579626.802351) can0 0CF00400#F07D8E0016FFFF8E
(1666579626.814397) can0 0CF00203#000000FFF75C1403
(1666579626.814565) can0 0CF00C03#5B04FFFFFFFFFFFF
(1666579626.817474) can0 0CF00400#F07D8E0016FFFF8E
(1666579626.826201) can0 18F0010B#CFFFF3FFFF0FFFFF
(1666579626.826360) can0 0CF00203#000000FFF75C1403
(1666579626.832014) can0 18FEBF0B#00007D7D7D7DFFFF
(1666579626.832184) can0 0CF00400#F07D8E0016FFFF8E
(1666579626.832571) can0 0CF00300#DF0010FFFFFFFFFF
(1666579626.832772) can0 18FEDF00#84E015FFFBFFFFFF
(1666579626.835556) can0 0C010305#FFFFE0FFFF3F3FFF
(1666579626.838987) can0 0CF00203#000000FFF7561403
(1666579626.839182) can0 0CF00C03#6404FFFFFFFFFFFF
(1666579626.839560) can0 18F00503#7D00007D4E204E43
(1666579626.841063) can0 18EF0503#FFFFFFFFFF004E4E
(1666579626.841242) can0 18FE4A03#03134CE0FFF1FFFF
(1666579626.847524) can0 0CF00400#F07D8E0016FFFF8E
(1666579626.850915) can0 0CF00203#000000FFF7561403
(1666579626.853175) can0 18F00197#FFFFF0FFFFFFFFFF
(1666579626.862228) can0 0CF00400#F07D8E0016FFFF8E
(1666579626.865549) can0 0CF00203#000000FFF7581403
(1666579626.865744) can0 0CF00C03#5E04FFFFFFFFFFFF
(1666579626.877325) can0 0CF00400#F07D8EEF15FFFF8E
(1666579626.877496) can0 0CF00203#000000FFF7581403
(1666579626.883376) can0 0C010305#FFFFE0FFFF3F3FFF
(1666579626.889166) can0 0CF00203#000000FFF7681403
(1666579626.889394) can0 0CF00C03#4504FFFFFFFFFFFF
(1666579626.892274) can0 0CF00400#F07D8EEF15FFFF8E
(1666579626.892440) can0 0CF00300#DF000FFFFFFFFFFF
(1666579626.895530) can0 18F00029#F07DFFFFFFFFFFFF
(1666579626.895746) can0 18FEE000#FFFFFFFF83040000
(1666579626.896032) can0 18FEF200#52000000EF00FFFF
(1666579626.896311) can0 18FEF000#FFFFFFFFFF0000FF
(1666579626.896613) can0 18FEF100#FF0000C0000000FF
(1666579626.901420) can0 0CF00203#000000FFF7681403
(1666579626.907288) can0 0CF00400#F07D8EDE15FFFF8E
(1666579626.913644) can0 0CF00203#000000FFF76E1403
(1666579626.913840) can0 0CF00C03#1B04FFFFFFFFFFFF
(1666579626.919948) can0 18FED51A#3A0DFFFFFFFFFFFF
(1666579626.922977) can0 0CF00400#F07D8EDE15FFFF8E
(1666579626.925302) can0 18F0010B#CFFFF3FFFF0FFFFF
(1666579626.925466) can0 0CF00203#000000FFF76E1403
(1666579626.928727) can0 0C010305#FFFFE0FFFF3F3FFF
(1666579626.932202) can0 18FEBF0B#00007D7D7D7DFFFF
(1666579626.937560) can0 0CF00400#F07D8ED615FFFF8E
(1666579626.937751) can0 0CF00300#DF000FFFFFFFFFFF
(1666579626.940874) can0 0CF00203#000000FFF77E1403
(1666579626.941083) can0 0CF00C03#0004FFFFFFFFFFFF
(1666579626.941309) can0 18F00503#7D00007D4E204E43
(1666579626.941696) can0 18EF0503#FFFFFFFFFF004E4E
(1666579626.944093) can0 18FE4A03#03134CE0FFF1FFFF
(1666579626.944332) can0 18FECA03#F3FF00000000FFFF
(1666579626.952502) can0 0CF00400#F07D8ED615FFFF8E
(1666579626.952669) can0 0CF00203#000000FFF77E1403
(1666579626.953054) can0 18F00197#FFFFF0FFFFFFFFFF
(1666579626.964479) can0 0CF00203#000000FFF76A1403
(1666579626.964665) can0 0CF00C03#0004FFFFFFFFFFFF
(1666579626.967528) can0 0CF00400#F07D8EEB15FFFF8E
(1666579626.976494) can0 0CF00203#000000FFF76A1403
(1666579626.980029) can0 0C010305#FFFFE0FFFF3F3FFF
(1666579626.983280) can0 0CF00400#F07D8EEB15FFFF8E
(1666579626.983285) can0 0CF00300#DF000FFFFFFFFFFF
(1666579626.983382) can0 18F00029#F07DFFFFFFFFFFFF
(1666579626.983827) can0 18FEE000#FFFFFFFF83040000
(1666579626.984032) can0 18FEF200#52000000EF00FFFF
(1666579626.986307) can0 18FEF000#FFFFFFFFFF0000FF
(1666579626.986434) can0 18FEF100#FF0000C0000000FF
(1666579626.988523) can0 0CF00203#000000FFF75E1403
(1666579626.988724) can0 0CF00C03#3104FFFFFFFFFFFF
(1666579626.997449) can0 0CF00400#F07D8EF315FFFF8E
(1666579627.000541) can0 0CF00203#000000FFF75E1403
(1666579627.012392) can0 0CF00400#F07D8EF315FFFF8E
(1666579627.015503) can0 0CF00203#000000FFF75C1403
(1666579627.015690) can0 0CF00C03#4804FFFFFFFFFFFF
(1666579627.027425) can0 0CF00400#F07D8EF315FFFF8E
(1666579627.027657) can0 0CF00203#000000FFF75C1403
(1666579627.027896) can0 0C010305#FFFFE0FFFF3F3FFF
(1666579627.028183) can0 18F0010B#CFFFF3FFFF0FFFFF
(1666579627.030578) can0 18FEBF0B#00007D7D7D7DFFFF
(1666579627.039505) can0 0CF00203#000000FFF7681403
(1666579627.039689) can0 0CF00C03#4804FFFFFFFFFFFF
(1666579627.040071) can0 18F00503#7D00007D4E204E43
(1666579627.042971) can0 18EF0503#FFFFFFFFFF004E4E
(1666579627.043210) can0 18FE4A03#03134CE0FFF1FFFF
(1666579627.043520) can0 0CF00400#F07D8EDA15FFFF8E
(1666579627.043812) can0 0CF00300#DF000FFFFFFFFFFF
(1666579627.051354) can0 0CF00203#000000FFF7681403
(1666579627.055328) can0 18F00197#FFFFF0FFFFFFFFFF
(1666579627.055515) can0 0CF00400#F07D8EDA15FFFF8E
(1666579627.063404) can0 0CF00203#000000FFF7601403
(1666579627.063583) can0 0CF00C03#4E04FFFFFFFFFFFF
(1666579627.070044) can0 0CF00400#F07D8ED115FFFF8E
(1666579627.072374) can0 0C010305#FFFFE0FFFF3F3FFF
(1666579627.075452) can0 0CF00203#000000FFF7601403
(1666579627.087430) can0 0CF00400#F07D8ED115FFFF8E
(1666579627.087639) can0 0CF00300#DF0010FFFFFFFFFF
(1666579627.088018) can0 18FEDF00#84E015FFFBFFFFFF
(1666579627.088208) can0 18F00029#F07DFFFFFFFFFFFF
(1666579627.090865) can0 0CF00203#000000FFF7581403
(1666579627.091084) can0 18FEE000#FFFFFFFF83040000
(1666579627.091357) can0 0CF00C03#3E04FFFFFFFFFFFF
(1666579627.091618) can0 18FEEF00#FFFFFF6AFFFFFFFF
(1666579627.092001) can0 18FEF200#52000000EF00FFFF
(1666579627.093615) can0 18FEF600#FF0037FFFFFFFFFF
(1666579627.093809) can0 18FEDB00#6E0AFFFFFFFFFFFF
(1666579627.094108) can0 18FEF000#FFFFFFFFFF0000FF
(1666579627.094423) can0 18FEF100#FF0000C0000000FF
(1666579627.100039) can0 0CF00400#F07D8EC915FFFF8E
(1666579627.102374) can0 0CF00203#000000FFF7581403
(1666579627.114453) can0 0CF00203#000000FFF7461403
(1666579627.114617) can0 0CF00C03#3104FFFFFFFFFFFF
(1666579627.117912) can0 0CF00400#F07D8EC915FFFF8E
(1666579627.124153) can0 0C010305#FFFFE0FFFF3F3FFF
(1666579627.127447) can0 0CF00203#000000FFF7461403
(1666579627.127656) can0 18F0010B#CFFFF3FFFF0FFFFF
(1666579627.132428) can0 0CF00400#F07D8EE615FFFF8E
(1666579627.132584) can0 0CF00300#DF0010FFFFFFFFFF
(1666579627.132980) can0 18FEBF0B#00007D7D7D7DFFFF
(1666579627.138929) can0 0CF00203#000000FFF7381403
(1666579627.139084) can0 0CF00C03#2304FFFFFFFFFFFF
(1666579627.139376) can0 18F00503#7D00007D4E204E43
(1666579627.142278) can0 18EF0503#FFFFFFFFFF004E4E
(1666579627.142436) can0 18FE4A03#03134CE0FFF1FFFF
(1666579627.147911) can0 0CF00400#F07D8EE615FFFF8E
(1666579627.151477) can0 0CF00203#000000FFF7381403
(1666579627.153447) can0 18F00197#FFFFF0FFFFFFFFFF
(1666579627.160209) can0 0CF00400#F07D8EE215FFFF8E
(1666579627.163174) can0 0CF00203#000000FFF7461403
(1666579627.163342) can0 0CF00C03#1B04FFFFFFFFFFFF
(1666579627.172153) can0 0C010305#FFFFE0FFFF3F3FFF
(1666579627.177871) can0 0CF00203#000000FFF7461403
(1666579627.178187) can0 0CF00400#F07D8EE215FFFF8E
(1666579627.189987) can0 0CF00203#000000FFF7401403
(1666579627.190283) can0 0CF00C03#3104FFFFFFFFFFFF
(1666579627.190564) can0 0CF00400#F07D8EE215FFFF8E
(1666579627.193266) can0 0CF00300#DF000FFFFFFFFFFF
(1666579627.193440) can0 18F00029#F07DFFFFFFFFFFFF
(1666579627.193829) can0 18FEE000#FFFFFFFF83040000
(1666579627.194033) can0 18FEF200#52000000EF00FFFF
(1666579627.194364) can0 18FEF000#FFFFFFFFFF0000FF
(1666579627.195341) can0 18FEF100#FF0000C0000000FF
(1666579627.201250) can0 0CF00203#000000FFF7401403
(1666579627.205348) can0 0CF00400#F07D8EE215FFFF8E
(1666579627.213842) can0 0CF00203#000000FFF74C1403
